# HZ S RI R 50
890000000 0.527919232 -0.01973937
890600000 0.520538752 -0.024218326
891200000 0.526172448 -0.031232816
891800000 0.531423392 -0.051505392
892400000 0.52119024 -0.04821736
893000000 0.5234456 -0.05130816
893600000 0.524172416 -0.058300904
894200000 0.51767104 -0.063206576
894800000 0.51515936 -0.078030416
895400000 0.51375376 -0.078831848
896000000 0.516826816 -0.088025888
896600000 0.516653888 -0.09320252
897200000 0.512019168 -0.095273128
897800000 0.508503392 -0.102490216
898400000 0.505315552 -0.104992176
899000000 0.508886208 -0.111613424
899600000 0.498005376 -0.121279272
900200000 0.502034016 -0.122557696
900800000 0.500677536 -0.132610976
901400000 0.500350656 -0.133595448
902000000 0.495608608 -0.143937088
902600000 0.491280864 -0.149470112
903200000 0.485684256 -0.154303856
903800000 0.482597632 -0.162683488
904400000 0.4819544 -0.162229824
905000000 0.474177824 -0.168544144
905600000 0.473008352 -0.177058672
906200000 0.47128048 -0.125559272
906800000 0.46242352 -0.18668168
907400000 0.465031232 -0.195514528
908000000 0.45536096 -0.195893296
908600000 0.451444768 -0.194230416
909200000 0.454547232 -0.200247904
909800000 0.448763392 -0.209471552
910400000 0.434505568 -0.211493056
911000000 0.444220704 -0.207828064
911600000 0.425699168 -0.220208
912200000 0.422787488 -0.22662304
912800000 0.41857024 -0.218958816
913400000 0.408605312 -0.228052656
914000000 0.406051136 -0.236664
914600000 0.405713728 -0.24308776
915200000 0.395432448 -0.245427184
915800000 0.392900256 -0.252568544
916400000 0.390236768 -0.253912896
917000000 0.379418912 -0.257163264
917600000 0.374908 -0.25818568
918200000 0.375306592 -0.25940472
918800000 0.365585312 -0.263683616
919400000 0.362741632 -0.267368768
920000000 0.35847328 -0.270727328
920600000 0.352809504 -0.274639264
921200000 0.342791232 -0.278654336
921800000 0.3419632 -0.275977696
922400000 0.32477424 -0.276674016
923000000 0.330151008 -0.28625232
923600000 0.324179424 -0.288205856
924200000 0.315794752 -0.286269632
924800000 0.308371584 -0.289811008
925400000 0.30251824 -0.294434144
926000000 0.291098656 -0.294854336
926600000 0.290116352 -0.294136576
927200000 0.279722944 -0.296336544
927800000 0.272234816 -0.2956912
928400000 0.268645952 -0.30112704
929000000 0.25482744 -0.303128992
929600000 0.252078832 -0.302131488
930200000 0.249067392 -0.29838736
930800000 0.238928064 -0.303654848
931400000 0.236141376 -0.294907712
932000000 0.22159648 -0.301100832
932600000 0.216187152 -0.301203712
933200000 0.213690592 -0.297427648
933800000 0.201547408 -0.293884832
934400000 0.190599056 -0.286753024
935000000 0.190449296 -0.28784064
935600000 0.183636032 -0.283477184
936200000 0.178617504 -0.28119536
936800000 0.17054712 -0.2817752
937400000 0.171843888 -0.280058688
938000000 0.160519168 -0.277852224
938600000 0.156321808 -0.272464576
939200000 0.148958064 -0.269685664
939800000 0.149507024 -0.266474304
940400000 0.145185904 -0.261095792
941000000 0.140972256 -0.2649332
941600000 0.140930752 -0.262092416
942200000 0.133014936 -0.253937744
942800000 0.13146204 -0.249251824
943400000 0.122092768 -0.249860688
944000000 0.124994632 -0.256281856
944600000 0.115356824 -0.24901368
945200000 0.117924712 -0.257253136
945800000 0.107646104 -0.248918688
946400000 0.102730568 -0.24836944
947000000 0.103322168 -0.246695488
947600000 0.094806152 -0.241821056
948200000 0.093514784 -0.24005632
948800000 0.086557072 -0.232921056
949400000 0.086092784 -0.23355384
950000000 0.0735382 -0.2268732
