# HZ S RI R 50
890000000 0.081648 0.283396864
890600000 0.084460072 0.288143904
891200000 0.094662856 0.285907552
891800000 0.092319056 0.288666272
892400000 0.101527304 0.292541344
893000000 0.114252576 0.295200992
893600000 0.11859476 0.301276768
894200000 0.1243196 0.303752128
894800000 0.127135008 0.30389024
895400000 0.142113472 0.307613472
896000000 0.143519392 0.307964128
896600000 0.1559256 0.306390816
897200000 0.161997424 0.30817168
897800000 0.167715312 0.30624768
898400000 0.173512288 0.31200176
899000000 0.177091472 0.306554368
899600000 0.185895248 0.310327456
900200000 0.193397312 0.307309504
900800000 0.203631152 0.307030528
901400000 0.210061312 0.308922944
902000000 0.215440176 0.304797472
902600000 0.218853088 0.308187648
903200000 0.222182496 0.306430112
903800000 0.2270132 0.30810912
904400000 0.232986368 0.303212224
905000000 0.24049792 0.306997312
905600000 0.239981904 0.301027648
906200000 0.247906704 0.332596576
906800000 0.258947248 0.300397376
907400000 0.265144192 0.2977848
908000000 0.263280448 0.298894784
908600000 0.273561152 0.295108256
909200000 0.275916352 0.295915136
909800000 0.277756992 0.299435968
910400000 0.29006784 0.295652128
911000000 0.290076448 0.297302624
911600000 0.295467712 0.293914368
912200000 0.303276736 0.284521312
912800000 0.308435296 0.283860224
913400000 0.323579808 0.278844
914000000 0.326998816 0.284555232
914600000 0.321876064 0.275965696
915200000 0.337382848 0.275725312
915800000 0.339294976 0.27440256
916400000 0.34155248 0.267634784
917000000 0.348029408 0.26352272
917600000 0.351899712 0.267938944
918200000 0.350361568 0.264375472
918800000 0.354961568 0.2575464
919400000 0.361100704 0.254707552
920000000 0.36413136 0.2522124
920600000 0.369429664 0.245477952
921200000 0.369640448 0.247308912
921800000 0.375958112 0.23956248
922400000 0.388729888 0.249581824
923000000 0.389093056 0.236695648
923600000 0.390495584 0.229729792
924200000 0.391373088 0.231490944
924800000 0.391604224 0.2258708
925400000 0.389985856 0.21845848
926000000 0.400378176 0.222501728
926600000 0.408058816 0.211396128
927200000 0.410172576 0.214835984
927800000 0.412052288 0.206087712
928400000 0.417893536 0.205307072
929000000 0.416176768 0.196424
929600000 0.419652448 0.191738096
930200000 0.425054432 0.191040208
930800000 0.424359552 0.181432192
931400000 0.420493312 0.184687456
932000000 0.424416288 0.179732128
932600000 0.43760272 0.177799344
933200000 0.439515072 0.173405504
933800000 0.435769152 0.17205864
934400000 0.443683328 0.165991952
935000000 0.441962624 0.160521584
935600000 0.446219264 0.157692384
936200000 0.445840544 0.151034864
936800000 0.449263648 0.14684104
937400000 0.450862912 0.144084912
938000000 0.446837696 0.143748704
938600000 0.453761056 0.139031904
939200000 0.453035072 0.133161008
939800000 0.456360352 0.125553888
940400000 0.463049216 0.125202488
941000000 0.465738272 0.123060624
941600000 0.466880576 0.120547872
942200000 0.459020448 0.10843236
942800000 0.467721952 0.11275356
943400000 0.464892192 0.101474712
944000000 0.466798784 0.097952552
944600000 0.471082752 0.087860936
945200000 0.47043296 0.089974936
945800000 0.4700032 0.07997448
946400000 0.472189152 0.08715556
947000000 0.477605216 0.066402956
947600000 0.475260384 0.07065608
948200000 0.469479584 0.066580212
948800000 0.475466624 0.0629038
949400000 0.470667776 0.053031596
950000000 0.473822432 0.058487624
