# HZ S RI R 50
890000000 -0.125257656 0.471213184
890600000 -0.11954296 0.469232608
891200000 -0.116621472 0.465096448
891800000 -0.112220576 0.467151904
892400000 -0.109259712 0.467918688
893000000 -0.101325096 0.466601024
893600000 -0.094171632 0.462949664
894200000 -0.089470368 0.466133312
894800000 -0.08617408 0.464307488
895400000 -0.079892528 0.461453984
896000000 -0.070949696 0.461383616
896600000 -0.072911912 0.461382944
897200000 -0.067518824 0.45913152
897800000 -0.05619834 0.457582752
898400000 -0.055281164 0.459903328
899000000 -0.04977894 0.455561472
899600000 -0.04741696 0.452744672
900200000 -0.041095192 0.452273664
900800000 -0.030909086 0.448576288
901400000 -0.030474572 0.447467904
902000000 -0.028110172 0.448960704
902600000 -0.021424432 0.444605984
903200000 -0.011522406 0.443700768
903800000 -0.007101317 0.44332528
904400000 -0.005043071 0.438011744
905000000 -0.001408039 0.435258368
905600000 0.00164024 0.434249632
906200000 0.003687748 0.419154656
906800000 0.013554734 0.430152288
907400000 0.01942753 0.42658032
908000000 0.025368602 0.432959328
908600000 0.026088428 0.428126688
909200000 0.028730054 0.42344512
909800000 0.041596248 0.42417552
910400000 0.042508432 0.42148144
911000000 0.05094024 0.422968224
911600000 0.048467396 0.416391424
912200000 0.050766528 0.416454336
912800000 0.060177176 0.41072912
913400000 0.06826512 0.406328544
914000000 0.064880384 0.407099232
914600000 0.06996716 0.40165104
915200000 0.076786088 0.40098176
915800000 0.084096088 0.397396416
916400000 0.083794808 0.388032384
917000000 0.08831324 0.387103072
917600000 0.093774152 0.384381696
918200000 0.092420112 0.38678224
918800000 0.100686504 0.378120128
919400000 0.10110792 0.378986464
920000000 0.109221176 0.375601312
920600000 0.113131696 0.372908672
921200000 0.115031224 0.365153728
921800000 0.1260974 0.367059456
922400000 0.123317048 0.355064992
923000000 0.12510428 0.36300032
923600000 0.130066144 0.356504256
924200000 0.131040616 0.352747168
924800000 0.131727848 0.346937472
925400000 0.140608656 0.33973456
926000000 0.137532032 0.3390568
926600000 0.141130336 0.341491904
927200000 0.143248752 0.338071904
927800000 0.14877984 0.334582912
928400000 0.146930352 0.330046144
929000000 0.155567568 0.324624896
929600000 0.154867168 0.322443296
930200000 0.160023728 0.318987808
930800000 0.165967344 0.314596768
931400000 0.164131472 0.313549504
932000000 0.16217184 0.306041312
932600000 0.169199952 0.30365376
933200000 0.170321056 0.299709632
933800000 0.171407056 0.295002368
934400000 0.172993328 0.299332992
935000000 0.176620048 0.296181216
935600000 0.178982864 0.293821216
936200000 0.178807696 0.28760512
936800000 0.184310432 0.279954016
937400000 0.18809272 0.279574336
938000000 0.188026032 0.275966816
938600000 0.189809616 0.270605728
939200000 0.190930352 0.267921504
939800000 0.192346448 0.265270032
940400000 0.193542304 0.260411472
941000000 0.196189664 0.260693216
941600000 0.19669856 0.260635056
942200000 0.195081936 0.258767664
942800000 0.204397008 0.254843152
943400000 0.205355376 0.250842448
944000000 0.207616608 0.24961424
944600000 0.20518 0.245338704
945200000 0.206862128 0.243709632
945800000 0.213485472 0.239986336
946400000 0.21409376 0.243416032
947000000 0.209387664 0.235450544
947600000 0.210709728 0.233193792
948200000 0.216249792 0.22786848
948800000 0.216508368 0.230309344
949400000 0.221011952 0.223676928
950000000 0.22287296 0.224673296
