# HZ S RI R 50
890000000 -0.177220976 0.33465712
890600000 -0.1628868 0.332072512
891200000 -0.156524624 0.334662464
891800000 -0.152985328 0.331807616
892400000 -0.146994176 0.327720672
893000000 -0.136530416 0.326426784
893600000 -0.132325888 0.325604544
894200000 -0.123692864 0.321618336
894800000 -0.124779264 0.318982144
895400000 -0.115011024 0.32215104
896000000 -0.111022752 0.323183968
896600000 -0.1064 0.320317536
897200000 -0.107516872 0.315324608
897800000 -0.096116496 0.312851328
898400000 -0.096660928 0.312011584
899000000 -0.092811272 0.314740128
899600000 -0.08346736 0.310075136
900200000 -0.07538152 0.311011744
900800000 -0.074109032 0.3097824
901400000 -0.071161056 0.31024864
902000000 -0.064940124 0.307725504
902600000 -0.059870544 0.304577536
903200000 -0.05433938 0.300821856
903800000 -0.04783132 0.302292064
904400000 -0.046595724 0.300838048
905000000 -0.042598592 0.298074176
905600000 -0.033190232 0.296001152
906200000 -0.040255204 0.300404896
906800000 -0.029071416 0.293752896
907400000 -0.023445072 0.294659456
908000000 -0.013927766 0.291615168
908600000 -0.015196062 0.286666848
909200000 -0.01423671 0.288473088
909800000 -0.006544174 0.28200816
910400000 0.003196386 0.28546192
911000000 0.007282132 0.281651424
911600000 0.008814136 0.278397664
912200000 0.01472173 0.28206848
912800000 0.015560382 0.276293056
913400000 0.026132796 0.272708992
914000000 0.033106018 0.273159072
914600000 0.03123362 0.272854688
915200000 0.037967456 0.270402944
915800000 0.04478904 0.26814872
916400000 0.047672508 0.263924592
917000000 0.052591832 0.267071808
917600000 0.056213712 0.25830376
918200000 0.058917912 0.259623344
918800000 0.067006804 0.254304224
919400000 0.069278912 0.252091136
920000000 0.079136152 0.249242112
920600000 0.081297048 0.248470048
921200000 0.08615912 0.244871456
921800000 0.086370072 0.241062624
922400000 0.090045648 0.234705296
923000000 0.098409784 0.236856672
923600000 0.09886608 0.229301888
924200000 0.097670352 0.226737888
924800000 0.103382528 0.22746288
925400000 0.100454112 0.216638384
926000000 0.110662712 0.217159568
926600000 0.118567416 0.222282656
927200000 0.120964936 0.220033616
927800000 0.126566824 0.215465504
928400000 0.128162056 0.210357568
929000000 0.13273704 0.205516112
929600000 0.136483472 0.202859424
930200000 0.140830144 0.195666864
930800000 0.143711456 0.19566424
931400000 0.146908656 0.187628864
932000000 0.145896608 0.188165168
932600000 0.149297088 0.182393728
933200000 0.158395504 0.1806532
933800000 0.161201008 0.179758
934400000 0.163350048 0.183252544
935000000 0.164423696 0.177272368
935600000 0.174401712 0.173239232
936200000 0.174798784 0.1690216
936800000 0.182984176 0.163436752
937400000 0.182634336 0.16166136
938000000 0.187067584 0.156917616
938600000 0.194744256 0.148888976
939200000 0.196133568 0.1467484
939800000 0.199890096 0.143815776
940400000 0.196918048 0.135101792
941000000 0.201326864 0.132089112
941600000 0.210433728 0.128397016
942200000 0.207445504 0.12493752
942800000 0.205506432 0.123425912
943400000 0.210340928 0.1172872
944000000 0.21794672 0.119717784
944600000 0.216106176 0.11406732
945200000 0.219504384 0.112484464
945800000 0.225558592 0.10362976
946400000 0.230764704 0.091093
947000000 0.231160592 0.091999104
947600000 0.228684864 0.08857188
948200000 0.231838 0.087422576
948800000 0.236819952 0.078571688
949400000 0.235948048 0.076829928
950000000 0.245027296 0.070684648
