# HZ S RI R 50
890000000 -0.102740016 0.448340512
890600000 -0.095642064 0.446449504
891200000 -0.09515512 0.447763936
891800000 -0.08763304 0.4469136
892400000 -0.08395892 0.439681568
893000000 -0.077706696 0.443135776
893600000 -0.075358568 0.44086976
894200000 -0.070449408 0.440256576
894800000 -0.064658828 0.437153056
895400000 -0.06486488 0.4374712
896000000 -0.059493256 0.436974176
896600000 -0.051705528 0.439901696
897200000 -0.044945676 0.442344352
897800000 -0.03941398 0.440507872
898400000 -0.034323828 0.441746496
899000000 -0.02881108 0.437954208
899600000 -0.015935718 0.437502048
900200000 -0.006283485 0.435573408
900800000 -0.005543193 0.42945008
901400000 0.002524167 0.427403488
902000000 0.009586564 0.41918864
902600000 0.012551106 0.417466464
903200000 0.02359629 0.41397664
903800000 0.029074614 0.409458592
904400000 0.024327052 0.40398272
905000000 0.036250692 0.397836832
905600000 0.040446296 0.397931264
906200000 0.04908556 0.378929056
906800000 0.047912456 0.38955456
907400000 0.051786352 0.389318464
908000000 0.04742238 0.39114112
908600000 0.060038244 0.377148224
909200000 0.059186632 0.370414144
909800000 0.057569568 0.375869216
910400000 0.0620399 0.362441376
911000000 0.058820736 0.363124512
911600000 0.06594202 0.365979776
912200000 0.069228936 0.365489664
912800000 0.073144864 0.360352192
913400000 0.080666576 0.365573728
914000000 0.08152016 0.362728672
914600000 0.084337648 0.36031024
915200000 0.086312552 0.356898784
915800000 0.093123432 0.353405152
916400000 0.103422648 0.355664448
917000000 0.102028648 0.349647616
917600000 0.112167728 0.34639872
918200000 0.118161032 0.34323952
918800000 0.121409712 0.344392128
919400000 0.12522028 0.337332
920000000 0.126477776 0.33035408
920600000 0.130065488 0.327233152
921200000 0.135395856 0.318804672
921800000 0.142321808 0.314214752
922400000 0.13484584 0.311150208
923000000 0.141971952 0.309300896
923600000 0.146343424 0.303861344
924200000 0.148477008 0.298556064
924800000 0.143782656 0.293144832
925400000 0.15299792 0.288969184
926000000 0.15169456 0.29112928
926600000 0.155194208 0.283382496
927200000 0.157950304 0.279612736
927800000 0.16268256 0.283521248
928400000 0.162651264 0.280553536
929000000 0.165880656 0.271013152
929600000 0.166893408 0.26767296
930200000 0.169100352 0.264737488
930800000 0.173367008 0.262038144
931400000 0.173271936 0.257732368
932000000 0.176851248 0.25228536
932600000 0.179546576 0.25041824
933200000 0.184887072 0.249004416
933800000 0.17672576 0.24797992
934400000 0.183719568 0.243084384
935000000 0.186304496 0.243680496
935600000 0.191723296 0.238211392
936200000 0.194485216 0.230130864
936800000 0.201736416 0.22974176
937400000 0.19881368 0.222845696
938000000 0.201896416 0.214858048
938600000 0.20128712 0.211532608
939200000 0.201285648 0.205101376
939800000 0.20262216 0.20046072
940400000 0.206711232 0.20094632
941000000 0.203536384 0.19205416
941600000 0.205628896 0.191964048
942200000 0.20951624 0.184684656
942800000 0.205786208 0.1869564
943400000 0.206892256 0.181748128
944000000 0.210290656 0.173356832
944600000 0.207286576 0.176694304
945200000 0.206767776 0.174640432
945800000 0.212315904 0.166383536
946400000 0.204220736 0.164014672
947000000 0.212441984 0.160824128
947600000 0.206418544 0.162885392
948200000 0.210504512 0.15645592
948800000 0.213235808 0.155420448
949400000 0.217304832 0.149369232
950000000 0.216025648 0.148074128
