# HZ S RI R 50
890000000 -0.151086784 0.273445216
890600000 -0.14878064 0.27592288
891200000 -0.139564384 0.269377664
891800000 -0.139136288 0.268431008
892400000 -0.132309448 0.273258976
893000000 -0.127480896 0.273033664
893600000 -0.122866184 0.270210624
894200000 -0.122859656 0.268113104
894800000 -0.117271168 0.26780024
895400000 -0.114839632 0.26543408
896000000 -0.105165296 0.26742152
896600000 -0.1011036 0.26615352
897200000 -0.094024 0.263963456
897800000 -0.092650392 0.264168896
898400000 -0.08328424 0.264460512
899000000 -0.08062296 0.262283648
899600000 -0.079220552 0.257863072
900200000 -0.074701976 0.256562032
900800000 -0.0659687 0.258099856
901400000 -0.062234408 0.257011536
902000000 -0.059127356 0.254588192
902600000 -0.057582288 0.249811488
903200000 -0.054140872 0.256510768
903800000 -0.048836864 0.25258064
904400000 -0.037135452 0.253120864
905000000 -0.032533336 0.25010768
905600000 -0.026340082 0.244478144
906200000 -0.013555848 0.237678608
906800000 -0.013547752 0.244631712
907400000 -0.00821945 0.24795808
908000000 -0.00522675 0.245561264
908600000 -0.000777117 0.236027712
909200000 0.009962092 0.239602912
909800000 0.010044502 0.230665712
910400000 0.01700938 0.234811312
911000000 0.019638248 0.228941024
911600000 0.0271421 0.22152576
912200000 0.036676236 0.216854976
912800000 0.042408112 0.211767984
913400000 0.042022768 0.20615392
914000000 0.044804804 0.200608176
914600000 0.050699372 0.190855488
915200000 0.050396756 0.188126512
915800000 0.056471028 0.187001408
916400000 0.059242564 0.1841288
917000000 0.056836484 0.176377408
917600000 0.063510836 0.176683136
918200000 0.060771132 0.170824784
918800000 0.064899416 0.171301504
919400000 0.067290064 0.167487344
920000000 0.072733912 0.1586396
920600000 0.07405812 0.160100768
921200000 0.075588768 0.154207184
921800000 0.077752752 0.150689456
922400000 0.083106504 0.151601968
923000000 0.079456664 0.153912528
923600000 0.081468184 0.148932688
924200000 0.084643056 0.13805416
924800000 0.086029864 0.143864256
925400000 0.093354624 0.141595056
926000000 0.088757496 0.134587728
926600000 0.096913368 0.13639696
927200000 0.096423424 0.133172736
927800000 0.0956434 0.128085328
928400000 0.103323296 0.131441784
929000000 0.101752384 0.12023692
929600000 0.108169832 0.120070872
930200000 0.11218068 0.112735288
930800000 0.114667136 0.114030544
931400000 0.114999368 0.110749472
932000000 0.11824748 0.104727976
932600000 0.122442408 0.099795576
933200000 0.12578496 0.094332032
933800000 0.128909664 0.0988828
934400000 0.133007424 0.089600656
935000000 0.130020408 0.09039056
935600000 0.131884336 0.086662608
936200000 0.139800064 0.082979216
936800000 0.137932208 0.078597968
937400000 0.143683648 0.072383344
938000000 0.142098304 0.065685308
938600000 0.145092144 0.062565824
939200000 0.148587392 0.057403392
939800000 0.147105584 0.058066716
940400000 0.147158784 0.055397944
941000000 0.15040792 0.046041496
941600000 0.151820992 0.047996344
942200000 0.152856352 0.042346116
942800000 0.149637568 0.039793972
943400000 0.153889264 0.032823648
944000000 0.158723216 0.027191906
944600000 0.1568264 0.02208637
945200000 0.162313584 0.01436493
945800000 0.15757624 0.02092671
946400000 0.15578664 0.01054645
947000000 0.159651568 0.016851566
947600000 0.162251088 0.01305442
948200000 0.165676896 0.00729482
948800000 0.167587696 0.000124392
949400000 0.158982848 -0.002777223
950000000 0.165435696 -0.002365578
