# HZ S RI R 50
430000000 -1.233644128 0.490440416 -0.003719873 -0.001160311 0 0 0 0
440700000 -1.186067456 0.61688864 -0.003564664 -0.001045827 0 0 0 0
451400000 -1.123735072 0.741057088 -0.003244227 -0.001186846 0 0 0 0
462100000 -1.044526576 0.860131456 -0.003600065 -0.001986084 0 0 0 0
472800000 -0.949942528 0.968205568 -0.003760185 -0.00162261 0 0 0 0
483500000 -0.839802688 1.062106968 -0.003708008 -0.001642971 0 0 0 0
494200000 -0.721689472 1.144352912 -0.004060577 -0.001180284 0 0 0 0
504900000 -0.592974784 1.208373792 -0.00421666 -0.001277244 0 0 0 0
515600000 -0.458335136 1.257358672 -0.004389265 -0.001754483 0 0 0 0
526300000 -0.319898688 1.289706592 -0.003448938 -0.001403048 0 0 0 0
537000000 -0.179075552 1.305283904 -0.004587064 -0.001841585 0 0 0 0
547700000 -0.042388508 1.299211392 -0.005035441 -0.001369383 0 0 0 0
558400000 0.092539664 1.278961056 -0.004527459 -0.000684307 0 0 0 0
569100000 0.21875184 1.24524712 -0.004123149 -0.001598696 0 0 0 0
579800000 0.340088448 1.200321072 -0.00390685 -0.001555746 0 0 0 0
590500000 0.460078528 1.140747792 -0.004248102 -0.001654507 0 0 0 0
601200000 0.566260864 1.070814248 -0.004019496 -0.001604169 0 0 0 0
611900000 0.669259456 0.99211136 -0.003971665 -0.00141497 0 0 0 0
622600000 0.757301184 0.903324032 -0.003803963 -0.001779296 0 0 0 0
633300000 0.841716608 0.809931968 -0.003813938 -0.001923464 0 0 0 0
644000000 0.908025728 0.702303808 -0.004331748 -0.002658392 0 0 0 0
654700000 0.962057216 0.589681088 -0.004837429 -0.002892173 0 0 0 0
665400000 1.000284076 0.47777632 -0.005568459 -0.001719343 0 0 0 0
676100000 1.028854966 0.356248096 -0.003728905 0.002431315 0 0 0 0
686800000 1.0408839 0.234353312 0.000229473 0.00054768 0 0 0 0
697500000 1.0466491 0.113901512 -0.000517637 -0.004375076 0 0 0 0
708200000 1.035732508 -0.012137482 -0.003838421 -0.004197469 0 0 0 0
718900000 1.009341478 -0.12995708 -0.004978226 -0.002234357 0 0 0 0
729600000 0.970643904 -0.242727104 -0.004570158 -0.001725896 0 0 0 0
740300000 0.925109632 -0.35432016 -0.004389887 -0.000363105 0 0 0 0
751000000 0.86454496 -0.458448544 -0.00302091 -0.000138569 0 0 0 0
761700000 0.793680448 -0.554994688 -0.002213862 -0.00120922 0 0 0 0
772400000 0.71258816 -0.644984768 -0.001878034 -0.000748298 0 0 0 0
783100000 0.615687104 -0.724077952 -0.001738827 5.3651e-05 0 0 0 0
793800000 0.515195616 -0.79141408 0.000972182 0.001606939 0 0 0 0
804500000 0.402530688 -0.850965952 0.004746391 0.001546415 0 0 0 0
815200000 0.283481696 -0.8942464 0.0094162 0.00128314 0 0 0 0
825900000 0.154123568 -0.922031424 0.015527714 -3.7814e-05 0 0 0 0
836600000 0.017989464 -0.928106816 0.025485892 -0.004184667 0 0 0 0
847300000 -0.124780568 -0.917647936 0.039571232 -0.013088412 0 0 0 0
858000000 -0.282287968 -0.87833376 0.061664036 -0.035268044 0 0 0 0
868700000 -0.45206832 -0.790814912 0.089983976 -0.087620664 0 0 0 0
879400000 -0.610799552 -0.579513408 0.081241336 -0.241399408 0 0 0 0
890100000 -0.667751104 -0.186487568 -0.15497576 -0.48455424 0 0 0 0
900800000 -0.241605344 0.035308808 -0.749039296 -0.288793856 0 0 0 0
911500000 -0.132727728 -0.132838232 -0.771555392 0.379814784 0 0 0 0
922200000 0.007252967 -0.051148336 -0.328480192 0.787026048 0 0 0 0
932900000 0.316159744 -0.354686752 0.25845736 0.6771792 0 0 0 0
943600000 0.113658384 -0.74765536 0.411118496 0.282741664 0 0 0 0
954300000 -0.184620144 -0.829317632 0.321378368 0.06579922 0 0 0 0
965000000 -0.408777184 -0.778371072 0.225672896 -0.033245004 0 0 0 0
975700000 -0.563254976 -0.687291904 0.15475864 -0.066609688 0 0 0 0
986400000 -0.675339264 -0.5822272 0.103762568 -0.078447256 0 0 0 0
997100000 -0.761406976 -0.475189664 0.068865032 -0.077672648 0 0 0 0
1007800000 -0.8102432 -0.364207872 0.046803156 -0.07158156 0 0 0 0
1018500000 -0.849985152 -0.255020656 0.027426932 -0.06709058 0 0 0 0
1029200000 -0.874624064 -0.154424976 0.01600679 -0.061335692 0 0 0 0
1039900000 -0.882079552 -0.055007216 0.004552762 -0.056157444 0 0 0 0
1050600000 -0.874162752 0.045656184 -0.003415041 -0.05172476 0 0 0 0
1061300000 -0.849837888 0.127549872 -0.007515373 -0.0453293 0 0 0 0
1072000000 -0.831890048 0.208776496 -0.013797414 -0.040311288 0 0 0 0
1082700000 -0.799163968 0.297782656 -0.01543709 -0.03481276 0 0 0 0
1093400000 -0.767229632 0.356385728 -0.017357342 -0.027948854 0 0 0 0
1104100000 -0.727131072 0.437506208 -0.017299186 -0.026257306 0 0 0 0
1114800000 -0.67854272 0.509052352 -0.012641104 -0.025928394 0 0 0 0
1125500000 -0.608930176 0.569399104 -0.021684452 -0.032048754 0 0 0 0
1136200000 -0.538893696 0.601939328 -0.03273921 -0.028407014 0 0 0 0
1146900000 -0.473361984 0.634754688 -0.039471044 -0.012349896 0 0 0 0
1157600000 -0.411395744 0.6659968 -0.03720286 0.003048799 0 0 0 0
1168300000 -0.3350912 0.681217984 -0.024678868 0.00979329 0 0 0 0
1179000000 -0.25980184 0.687803712 -0.01358297 0.010815148 0 0 0 0
1189700000 -0.207273216 0.694441984 -0.010913172 0.00491709 0 0 0 0
1200400000 -0.142508432 0.718505664 -0.008600342 0.001850921 0 0 0 0
1211100000 -0.065614536 0.70700896 -0.009840822 0.002038807 0 0 0 0
1221800000 -0.005167187 0.705619648 -0.00958295 0.000431258 0 0 0 0
1232500000 0.066414564 0.706057792 -0.006907471 0.002117234 0 0 0 0
1243200000 0.132281032 0.67036736 -0.00947477 0.004442605 0 0 0 0
1253900000 0.20704224 0.667895488 -0.010197528 0.00442774 0 0 0 0
1264600000 0.286052256 0.64114112 -0.008284702 0.001649013 0 0 0 0
1275300000 0.336801344 0.607560192 -0.00366273 -0.001194729 0 0 0 0
1286000000 0.400347712 0.555024896 -0.001410818 0.000460487 0 0 0 0
1296700000 0.470559552 0.537494272 0.000768833 -0.001078591 0 0 0 0
1307400000 0.534389088 0.480339072 -0.005723838 0.0033177 0 0 0 0
1318100000 0.585108288 0.42918272 -0.005182078 0.000523653 0 0 0 0
1328800000 0.629717056 0.359036192 -0.004273847 0.00286753 0 0 0 0
1339500000 0.695985984 0.322101408 -0.005333393 0.001685066 0 0 0 0
1350200000 0.70736416 0.220021184 -0.003991027 -0.00126699 0 0 0 0
1360900000 0.753044928 0.155113696 -0.005498222 -0.000550873 0 0 0 0
1371600000 0.766585216 0.077988176 -0.002533809 -0.002075315 0 0 0 0
1382300000 0.79256544 0.026763818 -0.008859194 -0.004826276 0 0 0 0
1393000000 0.83217056 -0.034514448 -0.012225326 0.001522814 0 0 0 0
1403700000 0.841670528 -0.096132608 -0.010384282 0.003886634 0 0 0 0
1414400000 0.868290048 -0.183333072 -0.001157333 0.007303926 0 0 0 0
1425100000 0.851144256 -0.258710208 -0.006904851 0.007259387 0 0 0 0
1435800000 0.907199872 -0.327437312 -0.003379979 0.00470743 0 0 0 0
1446500000 0.885273664 -0.409901888 -0.000349063 0.018781868 0 0 0 0
1457200000 0.829561664 -0.57944128 0.000934327 0.005795772 0 0 0 0
1467900000 0.808516096 -0.669894144 -0.01142772 0.004236288 0 0 0 0
1478600000 0.773335488 -0.816944384 0.000425218 0.003832849 0 0 0 0
1489300000 0.657825856 -0.959892608 -0.010193018 -0.002932378 0 0 0 0
1500000000 0.64712416 -1.007782936 0.000640544 -0.008425464 0 0 0 0
