# HZ S RI R 50
902000000 -0.19412344 0.015702474 -0.791609152 -0.214843808 0 0 0 0
902260000 -0.1884832 0.007839917 -0.801022976 -0.1981548 0 0 0 0
902520000 -0.184345808 0.001304082 -0.806774592 -0.182257856 0 0 0 0
902780000 -0.177551696 -0.004048506 -0.813297152 -0.165360512 0 0 0 0
903040000 -0.168105248 -0.00587521 -0.817575936 -0.149494496 0 0 0 0
903300000 -0.158554944 -0.017789098 -0.823047168 -0.128891912 0 0 0 0
903560000 -0.160543568 -0.024826024 -0.829291072 -0.112227352 0 0 0 0
903820000 -0.153907216 -0.03001143 -0.834707712 -0.093172224 0 0 0 0
904080000 -0.150620304 -0.032537614 -0.838337472 -0.079057664 0 0 0 0
904340000 -0.143768256 -0.03939096 -0.839109888 -0.065484048 0 0 0 0
904600000 -0.138626864 -0.050306152 -0.843600064 -0.043748348 0 0 0 0
904860000 -0.135648016 -0.052468848 -0.843404224 -0.025595784 0 0 0 0
905120000 -0.130512672 -0.060065788 -0.847392576 -0.008595586 0 0 0 0
905380000 -0.134335664 -0.064666136 -0.8477888 0.007221937 0 0 0 0
905640000 -0.131937248 -0.072814952 -0.848699328 0.026682436 0 0 0 0
905900000 -0.122807392 -0.076153472 -0.845473408 0.04226938 0 0 0 0
906160000 -0.125421896 -0.08290312 -0.848627328 0.060608804 0 0 0 0
906420000 -0.122375656 -0.0904348 -0.846570944 0.07226628 0 0 0 0
906680000 -0.125874328 -0.092443904 -0.84689632 0.094774576 0 0 0 0
906940000 -0.12213936 -0.098763008 -0.84525184 0.110956248 0 0 0 0
907200000 -0.117493304 -0.096625168 -0.841003648 0.12535268 0 0 0 0
907460000 -0.117360976 -0.105871544 -0.834689408 0.145116176 0 0 0 0
907720000 -0.122837856 -0.106545432 -0.839252992 0.159107744 0 0 0 0
907980000 -0.118584208 -0.105705768 -0.840498176 0.157921888 0 0 0 0
908240000 -0.11792852 -0.112053912 -0.842068992 0.193102992 0 0 0 0
908500000 -0.116417304 -0.119134208 -0.831462016 0.209807904 0 0 0 0
908760000 -0.116063712 -0.12417528 -0.825505344 0.222277632 0 0 0 0
909020000 -0.121255048 -0.121763016 -0.823973952 0.241128512 0 0 0 0
909280000 -0.12122848 -0.125177336 -0.821086528 0.252549536 0 0 0 0
909540000 -0.125733328 -0.130280328 -0.811714688 0.268608768 0 0 0 0
909800000 -0.119809776 -0.129216256 -0.810245248 0.285969856 0 0 0 0
910060000 -0.119431736 -0.140222112 -0.813425536 0.31287712 0 0 0 0
910320000 -0.125982312 -0.135213376 -0.79944416 0.31495504 0 0 0 0
910580000 -0.124251744 -0.132558736 -0.798115136 0.328314688 0 0 0 0
910840000 -0.120768872 -0.130373912 -0.790415296 0.343284192 0 0 0 0
911100000 -0.130121304 -0.132301224 -0.781805952 0.36066 0 0 0 0
911360000 -0.130027072 -0.136926368 -0.776080512 0.372470912 0 0 0 0
911620000 -0.129472584 -0.134860096 -0.767974208 0.383560192 0 0 0 0
911880000 -0.120052488 -0.13422392 -0.761998272 0.401605088 0 0 0 0
912140000 -0.123082008 -0.136546368 -0.761728384 0.408815264 0 0 0 0
912400000 -0.128495248 -0.137866656 -0.745921664 0.418736128 0 0 0 0
912660000 -0.130238816 -0.13576768 -0.737996096 0.435635872 0 0 0 0
912920000 -0.131333056 -0.13212244 -0.734857216 0.450209504 0 0 0 0
913180000 -0.123543648 -0.131428048 -0.722998272 0.461428032 0 0 0 0
913440000 -0.126959416 -0.129534784 -0.711725952 0.478507744 0 0 0 0
913700000 -0.128974512 -0.126605464 -0.706985216 0.490219008 0 0 0 0
913960000 -0.127630576 -0.126512808 -0.701444416 0.502875552 0 0 0 0
914220000 -0.126212744 -0.122663096 -0.69276768 0.51030736 0 0 0 0
914480000 -0.127957072 -0.123209896 -0.686638208 0.523866176 0 0 0 0
914740000 -0.120938184 -0.119533288 -0.676886464 0.536739648 0 0 0 0
915000000 -0.124831672 -0.11370068 -0.663296896 0.549269696 0 0 0 0
915260000 -0.122724784 -0.110866544 -0.657124864 0.560141312 0 0 0 0
915520000 -0.12026156 -0.11038936 -0.64606336 0.572470592 0 0 0 0
915780000 -0.11527984 -0.10644348 -0.637513792 0.578290688 0 0 0 0
916040000 -0.115518872 -0.109388104 -0.627070144 0.59460608 0 0 0 0
916300000 -0.113487416 -0.10719468 -0.618252544 0.606291264 0 0 0 0
916560000 -0.110778728 -0.099013056 -0.610026496 0.615194944 0 0 0 0
916820000 -0.103685048 -0.098886456 -0.592813696 0.625702272 0 0 0 0
917080000 -0.103434472 -0.098239536 -0.585787392 0.634003072 0 0 0 0
917340000 -0.098985912 -0.095259136 -0.572951616 0.64577664 0 0 0 0
917600000 -0.100113848 -0.089572928 -0.563921728 0.654441344 0 0 0 0
917860000 -0.09535228 -0.090895328 -0.548148736 0.666533696 0 0 0 0
918120000 -0.089775816 -0.086780624 -0.542243712 0.673599744 0 0 0 0
918380000 -0.08640188 -0.07942516 -0.52476048 0.684211776 0 0 0 0
918640000 -0.08356876 -0.078215192 -0.51443232 0.691649216 0 0 0 0
918900000 -0.078361896 -0.076253816 -0.498856576 0.699292032 0 0 0 0
919160000 -0.073621752 -0.074902856 -0.490135648 0.70965504 0 0 0 0
919420000 -0.067676464 -0.07014652 -0.4762144 0.713995008 0 0 0 0
919680000 -0.061710788 -0.068844592 -0.462809088 0.72328768 0 0 0 0
919940000 -0.052221748 -0.061556232 -0.446520864 0.731267584 0 0 0 0
920200000 -0.042004812 -0.068052392 -0.434888672 0.740809152 0 0 0 0
920460000 -0.03713664 -0.059814792 -0.42347632 0.748883712 0 0 0 0
920720000 -0.03067638 -0.05870996 -0.407796384 0.756104832 0 0 0 0
920980000 -0.022140974 -0.058229508 -0.395178976 0.759906176 0 0 0 0
921240000 -0.017491982 -0.059078784 -0.380417408 0.765269056 0 0 0 0
921500000 -0.008936972 -0.053859424 -0.369545696 0.773297216 0 0 0 0
921760000 -0.001239511 -0.051990228 -0.352193056 0.778232128 0 0 0 0
922020000 0.004396318 -0.052396152 -0.337436832 0.784457536 0 0 0 0
922280000 0.01311372 -0.052124716 -0.323025088 0.790340224 0 0 0 0
922540000 0.017924526 -0.053039368 -0.3052552 0.79466304 0 0 0 0
922800000 0.031655948 -0.053951732 -0.291134496 0.797226112 0 0 0 0
923060000 0.039202936 -0.049482352 -0.273776672 0.80070816 0 0 0 0
923320000 0.050593024 -0.053067264 -0.26143896 0.806610944 0 0 0 0
923580000 0.053394832 -0.057225804 -0.24819008 0.809279296 0 0 0 0
923840000 0.065078572 -0.0577527 -0.23259688 0.813358336 0 0 0 0
924100000 0.076817888 -0.06439028 -0.216312944 0.8166208 0 0 0 0
924360000 0.088289072 -0.059032684 -0.201609664 0.819637568 0 0 0 0
924620000 0.098284192 -0.063225164 -0.184537264 0.820626688 0 0 0 0
924880000 0.109572544 -0.068769352 -0.1703276 0.823512192 0 0 0 0
925140000 0.108014256 -0.00767994 -0.091802744 0.745046144 0 0 0 0
925400000 0.117442896 -0.074775432 -0.134985392 0.829228416 0 0 0 0
925660000 0.139525792 -0.078611688 -0.125694632 0.821861376 0 0 0 0
925920000 0.14146408 -0.083427512 -0.10855076 0.824429312 0 0 0 0
926180000 0.154014064 -0.088599928 -0.09135744 0.825586432 0 0 0 0
926440000 0.166259312 -0.095948704 -0.075477008 0.821838464 0 0 0 0
926700000 0.171956976 -0.097334392 -0.059797436 0.819336512 0 0 0 0
926960000 0.1814376 -0.106681368 -0.045903056 0.817229504 0 0 0 0
927220000 0.188843312 -0.113003064 -0.030848146 0.816419264 0 0 0 0
927480000 0.2030764 -0.12485872 -0.015105516 0.81557824 0 0 0 0
927740000 0.213878352 -0.133133072 0.001506925 0.811680128 0 0 0 0
928000000 0.220415552 -0.140418768 0.016307444 0.809880704 0 0 0 0
