# HZ S RI R 50
430000000 -1.18697416 0.61611776 -0.003692984 -0.001549678 0 0 0 0
440700000 -1.124742032 0.742663616 -0.003479164 -0.001248792 0 0 0 0
451400000 -1.049054144 0.859577856 -0.003485638 -0.001520114 0 0 0 0
462100000 -0.955055104 0.970880832 -0.004079632 -0.001606185 0 0 0 0
472800000 -0.84648064 1.068104744 -0.003829463 -0.00155025 0 0 0 0
483500000 -0.724775104 1.151412368 -0.00387119 -0.00145164 0 0 0 0
494200000 -0.596719424 1.218905568 -0.003474786 -0.001697262 0 0 0 0
504900000 -0.458215808 1.270454176 -0.00369573 -0.001552004 0 0 0 0
515600000 -0.318765024 1.30368304 -0.004121692 -0.001683632 0 0 0 0
526300000 -0.17361232 1.316989888 -0.003928462 -0.001719251 0 0 0 0
537000000 -0.030537848 1.31520032 -0.003962931 -0.001735393 0 0 0 0
547700000 0.110118424 1.290017248 -0.005098026 -0.001259681 0 0 0 0
558400000 0.239640768 1.253290064 -0.004197182 -0.001221562 0 0 0 0
569100000 0.361739456 1.202204592 -0.003916233 -0.001550106 0 0 0 0
579800000 0.477207648 1.142052896 -0.003888305 -0.001765412 0 0 0 0
590500000 0.588030208 1.067016484 -0.004055942 -0.001285629 0 0 0 0
601200000 0.683541632 0.986012544 -0.004449819 -0.001709367 0 0 0 0
611900000 0.776115328 0.892302464 -0.003885262 -0.001786545 0 0 0 0
622600000 0.862412352 0.795399936 -0.003823729 -0.001891056 0 0 0 0
633300000 0.91915776 0.69021216 -0.004119119 -0.002208919 0 0 0 0
644000000 0.97951456 0.573707456 -0.004618704 -0.002618296 0 0 0 0
654700000 1.0149194 0.457228096 -0.004943406 -0.002510986 0 0 0 0
665400000 1.04101026 0.333976608 -0.005854906 -0.000808932 0 0 0 0
676100000 1.054006936 0.212125696 -0.003680955 0.002279504 0 0 0 0
686800000 1.05129218 0.08634736 0.00021851 -0.000217218 0 0 0 0
697500000 1.041439532 -0.03497422 -0.001233567 -0.00434842 0 0 0 0
708200000 1.012876988 -0.153005024 -0.00475165 -0.003594294 0 0 0 0
718900000 0.971452864 -0.266002976 -0.005018746 -0.002101398 0 0 0 0
729600000 0.91932416 -0.374140448 -0.004307636 -0.001586257 0 0 0 0
740300000 0.857180864 -0.47776208 -0.004092612 -0.00058754 0 0 0 0
751000000 0.784206848 -0.575043904 -0.003074968 -0.000457252 0 0 0 0
761700000 0.6995648 -0.660143232 -0.002243186 -0.001601958 0 0 0 0
772400000 0.607208256 -0.73830336 -0.001862478 -0.001235567 0 0 0 0
783100000 0.504401792 -0.805546752 -0.000954212 0.000584157 0 0 0 0
793800000 0.395440384 -0.861362496 0.00166721 0.000958776 0 0 0 0
804500000 0.275438592 -0.902076928 0.004900876 0.001048008 0 0 0 0
815200000 0.151845552 -0.92786304 0.009500744 7.1632e-05 0 0 0 0
825900000 0.020941184 -0.937896192 0.015746364 -0.002754579 0 0 0 0
836600000 -0.114573792 -0.926006912 0.024552702 -0.007895133 0 0 0 0
847300000 -0.248015568 -0.89455264 0.03748214 -0.019091378 0 0 0 0
858000000 -0.396397504 -0.836118464 0.055749312 -0.043107076 0 0 0 0
868700000 -0.552334656 -0.730718656 0.076184224 -0.098777608 0 0 0 0
879400000 -0.683302144 -0.506643232 0.046101084 -0.24550128 0 0 0 0
890100000 -0.693402944 -0.120244712 -0.207193072 -0.451436032 0 0 0 0
900800000 -0.265924096 0.05304114 -0.766863424 -0.1968408 0 0 0 0
911500000 -0.161421728 -0.122710224 -0.710561728 0.467780064 0 0 0 0
922200000 -0.01241993 -0.08564004 -0.221539264 0.821856128 0 0 0 0
932900000 0.208607952 -0.426156608 0.351745024 0.63548576 0 0 0 0
943600000 -0.061933596 -0.752130432 0.441586016 0.21091392 0 0 0 0
954300000 -0.351648832 -0.761838336 0.31443232 0.00859093 0 0 0 0
965000000 -0.545303104 -0.68102912 0.210839904 -0.065282732 0 0 0 0
975700000 -0.6809136 -0.569592448 0.13564344 -0.08512288 0 0 0 0
986400000 -0.7709808 -0.451284096 0.087269496 -0.087973496 0 0 0 0
997100000 -0.82615136 -0.332498688 0.056424296 -0.082740176 0 0 0 0
1007800000 -0.862984 -0.221596976 0.034466784 -0.073804376 0 0 0 0
1018500000 -0.880310464 -0.108066128 0.016820408 -0.068421248 0 0 0 0
1029200000 -0.882294336 -0.005591315 0.005747566 -0.061110412 0 0 0 0
1039900000 -0.867363136 0.0871526 -0.002216283 -0.052549612 0 0 0 0
1050600000 -0.84972672 0.180474768 -0.00894919 -0.047856716 0 0 0 0
1061300000 -0.821356096 0.260259664 -0.014139772 -0.043447384 0 0 0 0
1072000000 -0.7812944 0.335109696 -0.016116496 -0.036684292 0 0 0 0
1082700000 -0.740519616 0.396840544 -0.019437226 -0.031103952 0 0 0 0
1093400000 -0.694769088 0.470479936 -0.018829136 -0.024191334 0 0 0 0
1104100000 -0.64610752 0.534072384 -0.018485928 -0.022636802 0 0 0 0
1114800000 -0.58351552 0.589988224 -0.014843776 -0.024684386 0 0 0 0
1125500000 -0.51164352 0.63368064 -0.024409306 -0.030404658 0 0 0 0
1136200000 -0.433753536 0.666058304 -0.034845796 -0.020714986 0 0 0 0
1146900000 -0.370311776 0.683719232 -0.040725916 -0.00813745 0 0 0 0
1157600000 -0.302483456 0.71113344 -0.032632754 0.00482782 0 0 0 0
1168300000 -0.217817168 0.709367232 -0.021437936 0.01206147 0 0 0 0
1179000000 -0.154898144 0.715984768 -0.011620824 0.010303818 0 0 0 0
1189700000 -0.095614696 0.727083008 -0.010041158 0.003874654 0 0 0 0
1200400000 -0.033736984 0.717311744 -0.00978871 0.002836892 0 0 0 0
1211100000 0.035357304 0.700748352 -0.00836312 0.001458761 0 0 0 0
1221800000 0.106451104 0.704897216 -0.00966699 0.00298849 0 0 0 0
1232500000 0.16783072 0.671556672 -0.012013274 0.003706416 0 0 0 0
1243200000 0.23542048 0.650485824 -0.008649008 0.002810761 0 0 0 0
1253900000 0.323943264 0.628100608 -0.0102456 2.3117e-05 0 0 0 0
1264600000 0.370619712 0.57885696 -0.004217344 0.000713653 0 0 0 0
1275300000 0.438451264 0.542800256 -0.004040278 0.000281453 0 0 0 0
1286000000 0.492675136 0.509118688 0.000284369 -0.001088966 0 0 0 0
1296700000 0.560689472 0.439341184 -0.002032938 -0.003412424 0 0 0 0
1307400000 0.616096832 0.391306496 -0.005773816 0.000821922 0 0 0 0
1318100000 0.66282496 0.348322656 -0.002654738 0.002920513 0 0 0 0
1328800000 0.718010176 0.267116816 -0.002172615 0.003986618 0 0 0 0
1339500000 0.741519488 0.196425968 -0.000162023 -0.000749924 0 0 0 0
1350200000 0.76525408 0.149199152 -0.006297572 0.000743245 0 0 0 0
1360900000 0.810391808 0.081072784 -0.004858832 -0.001286673 0 0 0 0
1371600000 0.80598496 0.009559334 -0.003037139 -0.004330253 0 0 0 0
1382300000 0.83010816 -0.07540188 -0.005771905 0.000267179 0 0 0 0
1393000000 0.833185088 -0.1541612 -0.00751307 0.002674926 0 0 0 0
1403700000 0.880849856 -0.21098976 -0.009101036 -0.001245451 0 0 0 0
1414400000 0.85710272 -0.280024768 -0.00370949 0.002338979 0 0 0 0
1425100000 0.86229472 -0.351622656 1.9032e-05 0.003406512 0 0 0 0
1435800000 0.874155712 -0.418300928 0.001613216 0.006607868 0 0 0 0
1446500000 0.870844032 -0.53318768 -0.005725471 0.010700182 0 0 0 0
1457200000 0.750646208 -0.713697472 -0.003907748 0.00865833 0 0 0 0
1467900000 0.691162624 -0.85114912 0.002266309 0.009661552 0 0 0 0
1478600000 0.666814848 -0.89502048 0.000409458 0.000986003 0 0 0 0
1489300000 0.591085632 -0.967675904 -0.000390859 0.00609282 0 0 0 0
1500000000 0.487149504 -1.069551112 0.009835688 0.007005473 0 0 0 0
