# HZ S RI R 50
902000000 -0.230572976 0.030233748 -0.800311104 -0.122034936 0 0 0 0
902260000 -0.221860192 0.028304294 -0.806499712 -0.104790272 0 0 0 0
902520000 -0.215253536 0.019687364 -0.811912256 -0.087306616 0 0 0 0
902780000 -0.202866368 0.011853738 -0.81604064 -0.065719964 0 0 0 0
903040000 -0.202955984 0.007318937 -0.821139776 -0.053661644 0 0 0 0
903300000 -0.194891088 -0.000407904 -0.821938304 -0.034920932 0 0 0 0
903560000 -0.19247664 -0.001929434 -0.827935552 -0.016693026 0 0 0 0
903820000 -0.183266256 -0.00893651 -0.828034112 0.003143907 0 0 0 0
904080000 -0.182082032 -0.022822644 -0.829535232 0.018218964 0 0 0 0
904340000 -0.178825088 -0.021372406 -0.836383936 0.0391607 0 0 0 0
904600000 -0.172808752 -0.02828281 -0.834444032 0.054947944 0 0 0 0
904860000 -0.170817184 -0.040147216 -0.828126656 0.073061768 0 0 0 0
905120000 -0.172547872 -0.04450212 -0.831049792 0.089298072 0 0 0 0
905380000 -0.16456336 -0.050491608 -0.83340128 0.105970504 0 0 0 0
905640000 -0.168918736 -0.054096512 -0.82949184 0.12367684 0 0 0 0
905900000 -0.16561712 -0.062439596 -0.8298704 0.14224928 0 0 0 0
906160000 -0.163830784 -0.067210216 -0.825496576 0.153653088 0 0 0 0
906420000 -0.166633536 -0.06839784 -0.819094784 0.172920944 0 0 0 0
906680000 -0.15720968 -0.069825464 -0.821036288 0.190656064 0 0 0 0
906940000 -0.161698016 -0.079279752 -0.816221632 0.206774304 0 0 0 0
907200000 -0.15992432 -0.080277752 -0.813025984 0.22780408 0 0 0 0
907460000 -0.153448912 -0.087866264 -0.819271296 0.240106496 0 0 0 0
907720000 -0.154876656 -0.09425804 -0.803026944 0.255148592 0 0 0 0
907980000 -0.161034352 -0.096133432 -0.787296768 0.28017872 0 0 0 0
908240000 -0.15681384 -0.094086144 -0.808148096 0.280363456 0 0 0 0
908500000 -0.158830032 -0.105268616 -0.791088768 0.298512224 0 0 0 0
908760000 -0.156961712 -0.104927352 -0.788610368 0.320182784 0 0 0 0
909020000 -0.159297056 -0.0999526 -0.783299968 0.330215744 0 0 0 0
909280000 -0.158546096 -0.111520368 -0.776172672 0.34602368 0 0 0 0
909540000 -0.1602652 -0.10701276 -0.765923968 0.363604416 0 0 0 0
909800000 -0.15909224 -0.112500176 -0.760140672 0.371460736 0 0 0 0
910060000 -0.16300976 -0.111074904 -0.735459328 0.395775104 0 0 0 0
910320000 -0.157480992 -0.111119768 -0.747324544 0.406149984 0 0 0 0
910580000 -0.15374504 -0.115282048 -0.740129664 0.421129472 0 0 0 0
910840000 -0.15813912 -0.120476632 -0.736839808 0.431865248 0 0 0 0
911100000 -0.155440224 -0.121738544 -0.726719488 0.441343168 0 0 0 0
911360000 -0.162862416 -0.117867544 -0.720072448 0.453355904 0 0 0 0
911620000 -0.15970904 -0.112731192 -0.710599552 0.467544064 0 0 0 0
911880000 -0.15646728 -0.117137184 -0.699483392 0.483208832 0 0 0 0
912140000 -0.157003568 -0.12160172 -0.6944016 0.497543968 0 0 0 0
912400000 -0.161027024 -0.117897664 -0.68571264 0.509200704 0 0 0 0
912660000 -0.161733776 -0.120797392 -0.673170688 0.514515584 0 0 0 0
912920000 -0.158751104 -0.117384056 -0.668875136 0.529976256 0 0 0 0
913180000 -0.156324352 -0.114843544 -0.656851328 0.5452224 0 0 0 0
913440000 -0.152055072 -0.118102872 -0.650469568 0.560763776 0 0 0 0
913700000 -0.15599408 -0.110592528 -0.637821312 0.566809536 0 0 0 0
913960000 -0.15654528 -0.114849816 -0.627438208 0.577151744 0 0 0 0
914220000 -0.155419632 -0.114328288 -0.621118656 0.584956416 0 0 0 0
914480000 -0.149795248 -0.116997744 -0.609672384 0.600721984 0 0 0 0
914740000 -0.151953424 -0.111844688 -0.599840768 0.608587968 0 0 0 0
915000000 -0.144402208 -0.110029392 -0.587626816 0.619037632 0 0 0 0
915260000 -0.140567008 -0.11041476 -0.57606176 0.634699008 0 0 0 0
915520000 -0.145160624 -0.102032048 -0.566924352 0.642374976 0 0 0 0
915780000 -0.137228464 -0.104522864 -0.555118208 0.6550064 0 0 0 0
916040000 -0.132792592 -0.103890944 -0.54372832 0.6615392 0 0 0 0
916300000 -0.138455952 -0.099959784 -0.53514768 0.669549824 0 0 0 0
916560000 -0.133428632 -0.10068676 -0.520675776 0.676280832 0 0 0 0
916820000 -0.134142328 -0.097393144 -0.50995744 0.690584768 0 0 0 0
917080000 -0.124738816 -0.098820096 -0.498769568 0.698067264 0 0 0 0
917340000 -0.123600048 -0.092979104 -0.48275136 0.705506304 0 0 0 0
917600000 -0.118223944 -0.09573544 -0.472568704 0.717692992 0 0 0 0
917860000 -0.115461224 -0.090999488 -0.4608144 0.725604288 0 0 0 0
918120000 -0.10894796 -0.087201456 -0.448787968 0.730112064 0 0 0 0
918380000 -0.105964952 -0.089452968 -0.433203232 0.738212224 0 0 0 0
918640000 -0.098246608 -0.084108656 -0.42008192 0.744294016 0 0 0 0
918900000 -0.089911776 -0.083206096 -0.4060512 0.752640576 0 0 0 0
919160000 -0.084128968 -0.084797528 -0.389502336 0.760159488 0 0 0 0
919420000 -0.082899336 -0.08881488 -0.379822624 0.767340672 0 0 0 0
919680000 -0.079498584 -0.083009456 -0.368026496 0.774714944 0 0 0 0
919940000 -0.071329136 -0.086252184 -0.351863072 0.773718016 0 0 0 0
920200000 -0.067248696 -0.082316976 -0.33979744 0.785032256 0 0 0 0
920460000 -0.05515962 -0.086846264 -0.32284 0.789090752 0 0 0 0
920720000 -0.047595604 -0.084457664 -0.308074112 0.79434752 0 0 0 0
920980000 -0.045247916 -0.083443488 -0.295768416 0.80181216 0 0 0 0
921240000 -0.036475432 -0.08619724 -0.278329536 0.801383168 0 0 0 0
921500000 -0.027058618 -0.085213776 -0.261156656 0.807768704 0 0 0 0
921760000 -0.022413532 -0.081595184 -0.249048656 0.815076928 0 0 0 0
922020000 -0.012039378 -0.085047536 -0.237169712 0.816170112 0 0 0 0
922280000 -0.007549885 -0.090845792 -0.219374656 0.820921792 0 0 0 0
922540000 -0.000611363 -0.092501192 -0.199891392 0.823763584 0 0 0 0
922800000 0.0093613 -0.094220344 -0.186126624 0.823827712 0 0 0 0
923060000 0.01267959 -0.094110232 -0.167221968 0.823916032 0 0 0 0
923320000 0.023635078 -0.095448496 -0.155707712 0.827039232 0 0 0 0
923580000 0.028202548 -0.100345104 -0.141901408 0.831927104 0 0 0 0
923840000 0.039029448 -0.101255616 -0.125412944 0.831094784 0 0 0 0
924100000 0.049295732 -0.105890432 -0.11195856 0.83495296 0 0 0 0
924360000 0.05989666 -0.117521264 -0.092980352 0.833945216 0 0 0 0
924620000 0.070265224 -0.118605232 -0.07575896 0.832259712 0 0 0 0
924880000 0.075363584 -0.12437556 -0.061015932 0.833949824 0 0 0 0
925140000 0.125106808 -0.182787952 -0.140068032 0.862155904 0 0 0 0
925400000 0.0908792 -0.12933144 -0.027564018 0.830712512 0 0 0 0
925660000 0.097474656 -0.134136648 -0.015406668 0.82956192 0 0 0 0
925920000 0.111054504 -0.1447044 0.000884444 0.829766912 0 0 0 0
926180000 0.112769968 -0.1557672 0.017031848 0.826468736 0 0 0 0
926440000 0.119878752 -0.161204336 0.03158927 0.823055872 0 0 0 0
926700000 0.127660616 -0.171761952 0.048265012 0.818871232 0 0 0 0
926960000 0.138682288 -0.175540336 0.062430888 0.816644672 0 0 0 0
927220000 0.1464184 -0.184961616 0.076584008 0.812677248 0 0 0 0
927480000 0.14704792 -0.19632544 0.093190264 0.80568352 0 0 0 0
927740000 0.156402608 -0.205583184 0.1088182 0.80226144 0 0 0 0
928000000 0.164887168 -0.211136304 0.12426032 0.797533824 0 0 0 0
