# HZ S RI R 50
890000000 0.04620814 -0.384344352
890600000 0.037591272 -0.376288
891200000 0.03110399 -0.375377696
891800000 0.025043852 -0.365260384
892400000 0.023664114 -0.36203568
893000000 0.013087654 -0.353680032
893600000 0.009309456 -0.346703776
894200000 0.00496647 -0.341929152
894800000 -0.001737605 -0.332043904
895400000 -0.006005693 -0.325492256
896000000 -0.006459906 -0.32174256
896600000 -0.009850694 -0.31068512
897200000 -0.016808794 -0.298703488
897800000 -0.019226182 -0.29864992
898400000 -0.01478239 -0.285800064
899000000 -0.022288832 -0.282669888
899600000 -0.021091126 -0.276079424
900200000 -0.022835896 -0.26813784
900800000 -0.03065031 -0.257258144
901400000 -0.029527026 -0.251986032
902000000 -0.032081668 -0.249109376
902600000 -0.031270762 -0.238143024
903200000 -0.037282844 -0.235932368
903800000 -0.037532544 -0.228700528
904400000 -0.041000832 -0.221179248
905000000 -0.038519972 -0.210147408
905600000 -0.03802114 -0.20560568
906200000 -0.049785128 -0.212766944
906800000 -0.035563612 -0.196956224
907400000 -0.041792152 -0.1902312
908000000 -0.0361932 -0.182103072
908600000 -0.04325662 -0.183039312
909200000 -0.042265796 -0.17368104
909800000 -0.041673636 -0.167231904
910400000 -0.035339876 -0.16553032
911000000 -0.045990096 -0.151497856
911600000 -0.04065294 -0.143872032
912200000 -0.043311676 -0.148351664
912800000 -0.046619392 -0.141217872
913400000 -0.042967876 -0.134898624
914000000 -0.047995736 -0.126565456
914600000 -0.047191388 -0.124106416
915200000 -0.051114368 -0.124528024
915800000 -0.046490312 -0.10644496
916400000 -0.048809244 -0.105181824
917000000 -0.04553214 -0.09374192
917600000 -0.052745536 -0.087526024
918200000 -0.046329828 -0.084674176
918800000 -0.051088076 -0.077798152
919400000 -0.046096544 -0.067177408
920000000 -0.042904512 -0.06437456
920600000 -0.039492028 -0.058880648
921200000 -0.04182222 -0.050372232
921800000 -0.035581028 -0.040045132
922400000 -0.034924868 -0.036104936
923000000 -0.033015706 -0.025049558
923600000 -0.028600904 -0.023332874
924200000 -0.028940154 -0.01313014
924800000 -0.024143918 -0.011734856
925400000 -0.0250815 -0.002289907
926000000 -0.022728742 -0.00039113
926600000 -0.010418244 0.007243681
927200000 -0.012147754 0.015361472
927800000 -0.004499092 0.016592492
928400000 -0.006677029 0.01901362
929000000 -0.004236863 0.024474898
929600000 -0.001201932 0.031647172
930200000 0.002966034 0.034517868
930800000 0.007189819 0.036602336
931400000 0.019151342 0.042562632
932000000 0.017105702 0.05237196
932600000 0.015706308 0.051869884
933200000 0.024027826 0.055121452
933800000 0.030383724 0.057065956
934400000 0.030694048 0.06543482
935000000 0.032638886 0.072636096
935600000 0.039916516 0.074068096
936200000 0.051902728 0.079241736
936800000 0.054823996 0.085035112
937400000 0.05617258 0.085588856
938000000 0.068681744 0.088085336
938600000 0.065856384 0.09130492
939200000 0.071522912 0.0948082
939800000 0.077990528 0.094313216
940400000 0.081044088 0.09849872
941000000 0.086197752 0.098473008
941600000 0.097867048 0.105764888
942200000 0.094662608 0.109342072
942800000 0.106142232 0.111620392
943400000 0.113681816 0.110831848
944000000 0.117951256 0.114961896
944600000 0.113999224 0.116482152
945200000 0.12685628 0.115272144
945800000 0.13454 0.123286168
946400000 0.141361936 0.121166944
947000000 0.147174544 0.120754544
947600000 0.151914992 0.124111776
948200000 0.15766264 0.131281432
948800000 0.162379296 0.124840568
949400000 0.177093984 0.1266046
950000000 0.184592 0.129680712
