# HZ S RI R 50
902000000 -0.072242272 0.026887916 -0.957162624 -0.091036376 0 0 0 0
902260000 -0.074322344 0.027577158 -0.95922304 -0.088475648 0 0 0 0
902520000 -0.078435096 0.030570048 -0.956960512 -0.091117976 0 0 0 0
902780000 -0.075807728 0.03046972 -0.95785056 -0.088865968 0 0 0 0
903040000 -0.075194288 0.025022746 -0.96056736 -0.08862504 0 0 0 0
903300000 -0.079046624 0.030012648 -0.960641408 -0.082732472 0 0 0 0
903560000 -0.075961992 0.023321552 -0.959960832 -0.083924416 0 0 0 0
903820000 -0.07892864 0.027854668 -0.960103424 -0.087545456 0 0 0 0
904080000 -0.078146608 0.031488322 -0.958523776 -0.082754912 0 0 0 0
904340000 -0.075083672 0.029840014 -0.957513088 -0.083445432 0 0 0 0
904600000 -0.07976604 0.027632108 -0.959680832 -0.07690072 0 0 0 0
904860000 -0.077511632 0.025525972 -0.961057088 -0.079165848 0 0 0 0
905120000 -0.081353168 0.029631338 -0.958553856 -0.080867264 0 0 0 0
905380000 -0.078104904 0.025171674 -0.957946048 -0.07980764 0 0 0 0
905640000 -0.076719664 0.026492288 -0.956579712 -0.075307696 0 0 0 0
905900000 -0.075117664 0.026864176 -0.958927744 -0.07410172 0 0 0 0
906160000 -0.081779536 0.030978794 -0.961589312 -0.077803192 0 0 0 0
906420000 -0.077693688 0.031850814 -0.954029312 -0.073381664 0 0 0 0
906680000 -0.072399496 0.03243849 -0.959307008 -0.07541552 0 0 0 0
906940000 -0.078867432 0.033529166 -0.959468672 -0.072596072 0 0 0 0
907200000 -0.076102648 0.025161798 -0.957648064 -0.06859404 0 0 0 0
907460000 -0.082843352 0.03233904 -0.973099584 -0.058659376 0 0 0 0
907720000 -0.078894064 0.02656995 -0.962953664 -0.068130584 0 0 0 0
907980000 -0.07795548 0.036002772 -0.972594624 -0.078937832 0 0 0 0
908240000 -0.076776048 0.032300436 -0.960526848 -0.055726916 0 0 0 0
908500000 -0.07716144 0.036298928 -0.964044544 -0.063055156 0 0 0 0
908760000 -0.073210912 0.033055272 -0.958793856 -0.058853596 0 0 0 0
909020000 -0.07933816 0.0359952 -0.96677952 -0.062175812 0 0 0 0
909280000 -0.07945108 0.03065222 -0.959898496 -0.059230864 0 0 0 0
909540000 -0.079512976 0.033775904 -0.961839168 -0.060740532 0 0 0 0
909800000 -0.074310248 0.033066698 -0.960943808 -0.063158272 0 0 0 0
910060000 -0.071325672 0.034710012 -0.957929728 -0.074698744 0 0 0 0
910320000 -0.075347128 0.035012084 -0.96457568 -0.053268284 0 0 0 0
910580000 -0.07141156 0.032668944 -0.964476544 -0.056161136 0 0 0 0
910840000 -0.075154824 0.028271858 -0.960670208 -0.050342768 0 0 0 0
911100000 -0.073124928 0.030179272 -0.960132608 -0.054372788 0 0 0 0
911360000 -0.07356168 0.029571888 -0.962013056 -0.050301372 0 0 0 0
911620000 -0.080836168 0.028574954 -0.969126144 -0.047390936 0 0 0 0
911880000 -0.074619552 0.032569754 -0.96274144 -0.045775504 0 0 0 0
912140000 -0.07721632 0.027825636 -0.96034016 -0.051842688 0 0 0 0
912400000 -0.074648808 0.038230948 -0.965479168 -0.047892304 0 0 0 0
912660000 -0.073405944 0.034468636 -0.965428416 -0.042519928 0 0 0 0
912920000 -0.075500048 0.029982574 -0.96554464 -0.046901228 0 0 0 0
913180000 -0.072544592 0.034594844 -0.964974144 -0.04802662 0 0 0 0
913440000 -0.07368604 0.029450862 -0.961773952 -0.033743916 0 0 0 0
913700000 -0.075030488 0.038050104 -0.965520256 -0.042819172 0 0 0 0
913960000 -0.076385104 0.03614458 -0.96476576 -0.042055936 0 0 0 0
914220000 -0.072432624 0.031870336 -0.96169664 -0.035983384 0 0 0 0
914480000 -0.074048864 0.035335508 -0.9684192 -0.037139504 0 0 0 0
914740000 -0.078332984 0.033863916 -0.968759808 -0.039122492 0 0 0 0
915000000 -0.076482152 0.030696392 -0.964559168 -0.03704676 0 0 0 0
915260000 -0.073353384 0.031245626 -0.96648704 -0.034524172 0 0 0 0
915520000 -0.077310672 0.029600888 -0.9670912 -0.034983068 0 0 0 0
915780000 -0.07890864 0.035065196 -0.968996416 -0.033646496 0 0 0 0
916040000 -0.07518412 0.030652336 -0.966326208 -0.031337768 0 0 0 0
916300000 -0.074751712 0.037405888 -0.967638272 -0.033993096 0 0 0 0
916560000 -0.076842312 0.033915108 -0.962449664 -0.031991572 0 0 0 0
916820000 -0.075850504 0.03858756 -0.964511744 -0.029497088 0 0 0 0
917080000 -0.071756992 0.03437596 -0.965129728 -0.032055378 0 0 0 0
917340000 -0.074995352 0.033195694 -0.96418048 -0.027813018 0 0 0 0
917600000 -0.077716488 0.035937836 -0.965595584 -0.030557424 0 0 0 0
917860000 -0.077202112 0.030500818 -0.966933952 -0.024190574 0 0 0 0
918120000 -0.079046392 0.035947364 -0.966128 -0.023402244 0 0 0 0
918380000 -0.074010656 0.038684736 -0.96566944 -0.02305302 0 0 0 0
918640000 -0.0712406 0.033388704 -0.969030528 -0.02131614 0 0 0 0
918900000 -0.072166376 0.032809388 -0.965736192 -0.0207358 0 0 0 0
919160000 -0.075426576 0.03295045 -0.968229184 -0.019919932 0 0 0 0
919420000 -0.078876856 0.037650248 -0.969630784 -0.01907593 0 0 0 0
919680000 -0.073860408 0.039290996 -0.966528512 -0.020690858 0 0 0 0
919940000 -0.069860128 0.036964348 -0.964119296 -0.01427135 0 0 0 0
920200000 -0.073373784 0.039177652 -0.967763584 -0.017145992 0 0 0 0
920460000 -0.07458736 0.034823052 -0.967371904 -0.015612782 0 0 0 0
920720000 -0.077534176 0.037679536 -0.9698656 -0.010887534 0 0 0 0
920980000 -0.074530408 0.038154136 -0.967426624 -0.01314342 0 0 0 0
921240000 -0.071762824 0.03789614 -0.965546368 -0.010316044 0 0 0 0
921500000 -0.068381672 0.035474652 -0.96936416 -0.008456826 0 0 0 0
921760000 -0.070230072 0.034283492 -0.969421888 -0.007163227 0 0 0 0
922020000 -0.074223008 0.0334455 -0.968400192 -0.008207828 0 0 0 0
922280000 -0.074810528 0.03501902 -0.971972096 -0.004302711 0 0 0 0
922540000 -0.072444696 0.033556604 -0.973059968 -0.003747165 0 0 0 0
922800000 -0.072343832 0.040875856 -0.96532768 0.0006845 0 0 0 0
923060000 -0.075746752 0.041780016 -0.967805952 6.6131e-05 0 0 0 0
923320000 -0.06986292 0.037062848 -0.964569216 -0.002185404 0 0 0 0
923580000 -0.07369928 0.039859844 -0.967711552 -0.00388819 0 0 0 0
923840000 -0.068579776 0.038250508 -0.968208192 0.000203788 0 0 0 0
924100000 -0.07359276 0.037967388 -0.97192608 -0.000537217 0 0 0 0
924360000 -0.070140008 0.034668752 -0.970489856 0.000797629 0 0 0 0
924620000 -0.073447848 0.03693914 -0.967300928 0.000159055 0 0 0 0
924880000 -0.074609552 0.040942904 -0.96980992 0.002851218 0 0 0 0
925140000 -0.057727132 0.048130444 -1.055883048 -0.16428616 0 0 0 0
925400000 -0.069791216 0.0330085 -0.973515008 0.016584308 0 0 0 0
925660000 -0.067520832 0.036863816 -0.966067776 0.010165454 0 0 0 0
925920000 -0.071766408 0.039978776 -0.968739904 0.006744683 0 0 0 0
926180000 -0.068283784 0.036867804 -0.96937472 0.010899366 0 0 0 0
926440000 -0.072316488 0.033944468 -0.971985408 0.008189112 0 0 0 0
926700000 -0.073545856 0.03658356 -0.970023104 0.01145485 0 0 0 0
926960000 -0.074561144 0.037107512 -0.967653824 0.009766222 0 0 0 0
927220000 -0.072502376 0.042137232 -0.9678016 0.009802788 0 0 0 0
927480000 -0.072735352 0.037164528 -0.970760704 0.012750566 0 0 0 0
927740000 -0.072740272 0.040576188 -0.972089792 0.020075322 0 0 0 0
928000000 -0.067013928 0.037916072 -0.968420416 0.017703264 0 0 0 0
