# HZ S RI R 50
430000000 -0.229903792 -0.076189672 -0.632993472 0.787606976 0 0 0 0
440700000 -0.228558112 -0.070733016 -0.537382656 0.855362944 0 0 0 0
451400000 -0.226341088 -0.068822352 -0.429591104 0.910042752 0 0 0 0
462100000 -0.225081168 -0.067944888 -0.31606752 0.951713664 0 0 0 0
472800000 -0.22712224 -0.070938768 -0.197183248 0.979265792 0 0 0 0
483500000 -0.229495344 -0.07355396 -0.07596192 0.993256192 0 0 0 0
494200000 -0.235430528 -0.075302344 0.046706556 0.9912064 0 0 0 0
504900000 -0.242941728 -0.077191096 0.167930128 0.972154688 0 0 0 0
515600000 -0.252945296 -0.078061248 0.283529984 0.937457792 0 0 0 0
526300000 -0.264577216 -0.077437144 0.392970496 0.88705696 0 0 0 0
537000000 -0.276266656 -0.073136128 0.4938576 0.824346816 0 0 0 0
547700000 -0.290727488 -0.067786568 0.585164992 0.749852544 0 0 0 0
558400000 -0.305158464 -0.057326864 0.665705536 0.665551936 0 0 0 0
569100000 -0.319342656 -0.046109816 0.734034432 0.573713152 0 0 0 0
579800000 -0.332759008 -0.030178178 0.789477056 0.477398976 0 0 0 0
590500000 -0.3417768 -0.011043082 0.831846464 0.373966816 0 0 0 0
601200000 -0.35047184 0.008584836 0.861458304 0.2706296 0 0 0 0
611900000 -0.354578048 0.033145052 0.879454592 0.16651272 0 0 0 0
622600000 -0.357021088 0.058007436 0.888566592 0.059652208 0 0 0 0
633300000 -0.350846944 0.083248176 0.881879104 -0.03872934 0 0 0 0
644000000 -0.343684416 0.108125864 0.868154944 -0.139197792 0 0 0 0
654700000 -0.331147328 0.131919936 0.84363552 -0.235588608 0 0 0 0
665400000 -0.316835136 0.156025968 0.807271488 -0.329836416 0 0 0 0
676100000 -0.298052192 0.174042192 0.761498624 -0.418998048 0 0 0 0
686800000 -0.272991808 0.190920544 0.7053056 -0.499248672 0 0 0 0
697500000 -0.247997216 0.203618208 0.643309504 -0.577025856 0 0 0 0
708200000 -0.219671456 0.210993264 0.56860192 -0.643573952 0 0 0 0
718900000 -0.191562592 0.211293744 0.487530464 -0.703842304 0 0 0 0
729600000 -0.166457216 0.209715264 0.399759136 -0.7536976 0 0 0 0
740300000 -0.139088672 0.20364704 0.3094328 -0.797206272 0 0 0 0
751000000 -0.114643472 0.191372032 0.212624048 -0.831806272 0 0 0 0
761700000 -0.092997584 0.17672696 0.111230936 -0.85538304 0 0 0 0
772400000 -0.078445888 0.159705328 0.007843375 -0.866567744 0 0 0 0
783100000 -0.065471396 0.141334944 -0.09817144 -0.866066112 0 0 0 0
793800000 -0.0571951 0.120278856 -0.204980912 -0.854262208 0 0 0 0
804500000 -0.05046156 0.1016184 -0.311418976 -0.82698976 0 0 0 0
815200000 -0.050810108 0.082559736 -0.41467136 -0.7850688 0 0 0 0
825900000 -0.051011952 0.065958604 -0.511844768 -0.72974304 0 0 0 0
836600000 -0.053751212 0.050840184 -0.598343936 -0.66137056 0 0 0 0
847300000 -0.059818832 0.039689376 -0.674633664 -0.582425536 0 0 0 0
858000000 -0.066953592 0.027545034 -0.738663168 -0.49605216 0 0 0 0
868700000 -0.073434168 0.018847296 -0.789115584 -0.403347424 0 0 0 0
879400000 -0.067229696 0.020712774 -0.920906688 -0.26192952 0 0 0 0
890100000 -0.075599656 0.024692232 -0.942847104 -0.141176848 0 0 0 0
900800000 -0.075573136 0.030137328 -0.956742592 -0.096920848 0 0 0 0
911500000 -0.073068128 0.03183144 -0.962112896 -0.050905048 0 0 0 0
922200000 -0.071444408 0.035506372 -0.967720256 -0.009151608 0 0 0 0
932900000 -0.06234802 0.036466064 -0.970672384 0.034326284 0 0 0 0
943600000 -0.054521904 0.040204292 -0.977841408 0.076406496 0 0 0 0
954300000 -0.043490668 0.041095332 -0.96973152 0.154462128 0 0 0 0
965000000 -0.037051032 0.025012232 -0.951233152 0.27528048 0 0 0 0
975700000 -0.025346914 0.014811004 -0.911531328 0.391981856 0 0 0 0
986400000 -0.005372913 -0.008564838 -0.864521536 0.511994496 0 0 0 0
997100000 -0.003059891 -0.025170858 -0.79608768 0.618839616 0 0 0 0
1007800000 0.005674555 -0.050844356 -0.712426176 0.726200192 0 0 0 0
1018500000 0.009056762 -0.073666736 -0.620117504 0.821465344 0 0 0 0
1029200000 -0.004431294 -0.111219352 -0.513038464 0.906370304 0 0 0 0
1039900000 -0.018419316 -0.132701976 -0.388363584 0.978190976 0 0 0 0
1050600000 -0.040172928 -0.164464992 -0.25467128 1.031888604 0 0 0 0
1061300000 -0.062344756 -0.187150688 -0.118045632 1.06607604 0 0 0 0
1072000000 -0.096489464 -0.203265072 0.025392682 1.077943088 0 0 0 0
1082700000 -0.123939312 -0.213042256 0.166430656 1.073274136 0 0 0 0
1093400000 -0.163270512 -0.222500496 0.306794336 1.047199728 0 0 0 0
1104100000 -0.19758256 -0.21575432 0.435840416 1.004826069 0 0 0 0
1114800000 -0.232767664 -0.204172992 0.55311712 0.936232448 0 0 0 0
1125500000 -0.265094192 -0.190143664 0.671923328 0.853565248 0 0 0 0
1136200000 -0.284068384 -0.161827712 0.767029632 0.762359104 0 0 0 0
1146900000 -0.324098592 -0.137388096 0.850410688 0.658372096 0 0 0 0
1157600000 -0.34422704 -0.113355656 0.91893984 0.544567744 0 0 0 0
1168300000 -0.349909056 -0.079579936 0.969999168 0.425941536 0 0 0 0
1179000000 -0.349930688 -0.037390612 1.007746458 0.30088944 0 0 0 0
1189700000 -0.34624256 -0.001384069 1.02118051 0.174469584 0 0 0 0
1200400000 -0.327356608 0.030357314 1.02673304 0.045151412 0 0 0 0
1211100000 -0.32021792 0.049504428 1.007733941 -0.085111696 0 0 0 0
1221800000 -0.285463744 0.077958992 0.97663552 -0.208645088 0 0 0 0
1232500000 -0.253814192 0.09999896 0.928445824 -0.34172 0 0 0 0
1243200000 -0.220215984 0.093189264 0.85652896 -0.46417504 0 0 0 0
1253900000 -0.175223904 0.102756904 0.761904768 -0.58228384 0 0 0 0
1264600000 -0.131674008 0.083427848 0.663851072 -0.686840704 0 0 0 0
1275300000 -0.104863752 0.053435308 0.529923136 -0.784679552 0 0 0 0
1286000000 -0.07003296 0.00944846 0.38642592 -0.859784 0 0 0 0
1296700000 -0.053732196 -0.026992988 0.224276208 -0.909505152 0 0 0 0
1307400000 -0.042686412 -0.096473112 0.05275838 -0.943963392 0 0 0 0
1318100000 -0.033669 -0.156291664 -0.143983696 -0.926506816 0 0 0 0
1328800000 -0.068423528 -0.218200992 -0.328706592 -0.867593536 0 0 0 0
1339500000 -0.104736304 -0.260014032 -0.50176704 -0.782249472 0 0 0 0
1350200000 -0.131724568 -0.32972464 -0.656547904 -0.644977856 0 0 0 0
1360900000 -0.21576008 -0.367107264 -0.771446464 -0.476630464 0 0 0 0
1371600000 -0.268290096 -0.394203232 -0.846795136 -0.272435968 0 0 0 0
1382300000 -0.348326688 -0.411258464 -0.864433152 -0.072098064 0 0 0 0
1393000000 -0.422173248 -0.408619616 -0.8371936 0.118460616 0 0 0 0
1403700000 -0.495061632 -0.375079456 -0.75009856 0.304058688 0 0 0 0
1414400000 -0.579283008 -0.366076544 -0.64478336 0.456662016 0 0 0 0
1425100000 -0.621558464 -0.31426112 -0.486865088 0.553473088 0 0 0 0
1435800000 -0.703594752 -0.280117056 -0.334578336 0.622356864 0 0 0 0
1446500000 -0.743756608 -0.203621728 -0.18060192 0.64174752 0 0 0 0
1457200000 -0.745084096 -0.165552336 0.038322492 0.793460032 0 0 0 0
1467900000 -0.801602176 -0.123976736 0.1710904 0.767219648 0 0 0 0
1478600000 -0.832189376 -0.040441208 0.266093232 0.689047552 0 0 0 0
1489300000 -0.835470656 0.039436208 0.3645984 0.618735552 0 0 0 0
1500000000 -0.799967488 0.102163544 0.411560928 0.539479296 0 0 0 0
