# HZ S RI R 50
885000000 -0.389448288 0.884171456 -0.000618792 -0.00095094 0 0 0 0
885450000 -0.377243712 0.891059648 -0.000179594 -0.000595781 0 0 0 0
885900000 -0.368023648 0.89353088 -0.00054153 -0.000520474 0 0 0 0
886350000 -0.353424832 0.907277056 -0.001036428 -0.000966122 0 0 0 0
886800000 -0.345559552 0.905804416 -0.000854898 -0.001016898 0 0 0 0
887250000 -0.327596288 0.93189152 0.00012934 -0.000958341 0 0 0 0
887700000 -0.320684608 0.913899456 0.000362468 -0.000673843 0 0 0 0
888150000 -0.299566016 0.916756416 -0.000186555 -0.00107802 0 0 0 0
888600000 -0.28626864 0.918577024 0.000491449 -0.001277619 0 0 0 0
889050000 -0.2745968 0.929092736 -6.9665e-05 -0.001630802 0 0 0 0
889500000 -0.262400384 0.921796288 -0.000298707 -0.001826614 0 0 0 0
889950000 -0.248337008 0.929837568 0.000760668 -0.00131105 0 0 0 0
890400000 -0.231931888 0.933425088 0.001595032 -0.000361552 0 0 0 0
890850000 -0.220704176 0.936998144 0.001079035 -0.000712284 0 0 0 0
891300000 -0.204688496 0.938236224 0.00031651 -0.00190851 0 0 0 0
891750000 -0.18784144 0.9363648 0.001620255 -0.00307763 0 0 0 0
892200000 -0.17923376 0.942508224 0.001795286 -0.003082135 0 0 0 0
892650000 -0.156658048 0.942616256 0.001601508 -0.002090944 0 0 0 0
893100000 -0.13760408 0.950344448 0.001959493 -0.002434353 0 0 0 0
893550000 -0.113162984 0.947491712 0.002317665 -0.00360538 0 0 0 0
894000000 -0.098292424 0.947818432 0.002568583 -0.002269634 0 0 0 0
894450000 -0.07963088 0.95004064 0.003042193 -0.003594999 0 0 0 0
894900000 -0.066885708 0.959197824 0.003615604 -0.003968989 0 0 0 0
895350000 -0.037727824 0.949696704 0.004635196 -0.004351164 0 0 0 0
895800000 -0.022748798 0.94880224 0.003502926 -0.005202485 0 0 0 0
896250000 0.002860329 0.946919488 0.004424765 -0.005421889 0 0 0 0
896700000 0.030052334 0.943107456 0.005965019 -0.006655505 0 0 0 0
897150000 0.049092468 0.94723072 0.005615561 -0.007114181 0 0 0 0
897600000 0.080822312 0.935740672 0.007199731 -0.00844219 0 0 0 0
898050000 0.10546736 0.936953856 0.007321963 -0.010721276 0 0 0 0
898500000 0.136768896 0.925739008 0.008051222 -0.012790792 0 0 0 0
898950000 0.17113408 0.922206272 0.01052412 -0.015310262 0 0 0 0
899400000 0.205853376 0.912120832 0.010967974 -0.01822599 0 0 0 0
899850000 0.239139296 0.902805056 0.013767372 -0.022304684 0 0 0 0
900300000 0.272913632 0.883917824 0.012262198 -0.028001174 0 0 0 0
900750000 0.31280032 0.86627808 0.01280356 -0.035678708 0 0 0 0
901200000 0.357869504 0.84586784 0.01330951 -0.045164228 0 0 0 0
901650000 0.405086784 0.8114112 0.00935382 -0.057415604 0 0 0 0
902100000 0.447198336 0.774682048 0.004703745 -0.072343792 0 0 0 0
902550000 0.499914656 0.731949312 -0.006030653 -0.090222136 0 0 0 0
903000000 0.550101888 0.677249984 -0.02423412 -0.11178456 0 0 0 0
903450000 0.59682592 0.598022848 -0.051805416 -0.133703008 0 0 0 0
903900000 0.631507584 0.519919744 -0.092864 -0.153397472 0 0 0 0
904350000 0.663761984 0.419559168 -0.152609184 -0.168971968 0 0 0 0
904800000 0.667850624 0.304188416 -0.22852472 -0.161084816 0 0 0 0
905250000 0.652344256 0.179644592 -0.325735392 -0.126378832 0 0 0 0
905700000 0.602900544 0.061255552 -0.427434048 -0.038318724 0 0 0 0
906150000 0.509004 -0.065569364 -0.498165664 0.107581808 0 0 0 0
906600000 0.387896768 -0.145649088 -0.505618944 0.302403584 0 0 0 0
907050000 0.247328704 -0.190684768 -0.418121472 0.506498816 0 0 0 0
907500000 0.116654824 -0.191230496 -0.240355712 0.666644672 0 0 0 0
907950000 -0.003188107 -0.14054552 -0.004456729 0.753535744 0 0 0 0
908400000 -0.08069872 -0.06307324 0.242621168 0.735258432 0 0 0 0
908850000 -0.101908584 0.016938576 0.461860768 0.6338736 0 0 0 0
909300000 -0.08846388 0.088907168 0.620587584 0.475378112 0 0 0 0
909750000 -0.051186584 0.116690088 0.731716672 0.28303328 0 0 0 0
910200000 -0.00373055 0.088829752 0.779356224 0.078841808 0 0 0 0
910650000 0.014988626 0.03865362 0.776214912 -0.136759904 0 0 0 0
911100000 -0.002435813 -0.023669616 0.714249024 -0.342640864 0 0 0 0
911550000 -0.071687944 -0.076242992 0.5840096 -0.538654784 0 0 0 0
912000000 -0.164255648 -0.08107004 0.396019328 -0.682574784 0 0 0 0
912450000 -0.258537136 -0.045653084 0.170392816 -0.751729984 0 0 0 0
912900000 -0.290469568 0.04130064 -0.061015516 -0.742298624 0 0 0 0
913350000 -0.260389712 0.139857024 -0.275465248 -0.666073728 0 0 0 0
913800000 -0.152945136 0.178518416 -0.447993984 -0.523250816 0 0 0 0
914250000 -0.007475794 0.10527988 -0.562432896 -0.328023072 0 0 0 0
914700000 0.049556756 -0.100441288 -0.583647744 -0.094686928 0 0 0 0
915150000 -0.06438452 -0.314505792 -0.49632384 0.111004768 0 0 0 0
915600000 -0.29091344 -0.421221632 -0.343072288 0.220976736 0 0 0 0
916050000 -0.506421632 -0.398450624 -0.205868128 0.240718896 0 0 0 0
916500000 -0.665964928 -0.32146224 -0.10449836 0.221138656 0 0 0 0
916950000 -0.78101024 -0.209261248 -0.03789354 0.182982192 0 0 0 0
917400000 -0.855755712 -0.097712824 -0.001303483 0.139066032 0 0 0 0
917850000 -0.895027904 0.022669962 0.017862684 0.103688328 0 0 0 0
918300000 -0.910137728 0.125909 0.02425503 0.075115728 0 0 0 0
918750000 -0.91206464 0.209416544 0.023725458 0.054583656 0 0 0 0
919200000 -0.897907392 0.290836 0.022723676 0.038748272 0 0 0 0
919650000 -0.890106368 0.354833376 0.02028856 0.029462328 0 0 0 0
920100000 -0.857307584 0.40686432 0.017884806 0.023034918 0 0 0 0
920550000 -0.84409184 0.459185408 0.014807472 0.018688222 0 0 0 0
921000000 -0.821440704 0.504433088 0.012794928 0.01381982 0 0 0 0
921450000 -0.799180224 0.540192384 0.009377234 0.010348764 0 0 0 0
921900000 -0.78656256 0.576411776 0.009274288 0.00819595 0 0 0 0
922350000 -0.759483136 0.611529984 0.008697106 0.006224247 0 0 0 0
922800000 -0.74498848 0.641058176 0.006533874 0.004366303 0 0 0 0
923250000 -0.726900288 0.661077824 0.004976175 0.004876242 0 0 0 0
923700000 -0.705067904 0.680800192 0.003991563 0.00329955 0 0 0 0
924150000 -0.680561344 0.709192832 0.003940264 0.002708027 0 0 0 0
924600000 -0.665760704 0.722664384 0.004048811 0.002486337 0 0 0 0
925050000 -0.645021184 0.742011392 0.003099558 0.001086229 0 0 0 0
925500000 -0.625137856 0.758101056 0.001544769 0.001164386 0 0 0 0
925950000 -0.614388736 0.774551424 0.001276422 0.000545168 0 0 0 0
926400000 -0.59158592 0.782307968 0.00238217 0.001377175 0 0 0 0
926850000 -0.576061568 0.792555648 0.000551295 0.000715673 0 0 0 0
927300000 -0.558643136 0.80669472 0.001831141 0.000705472 0 0 0 0
927750000 -0.546286784 0.824528128 0.001045661 0.000799648 0 0 0 0
928200000 -0.538204608 0.836597056 -0.000170919 1.4789e-05 0 0 0 0
928650000 -0.514700704 0.83696576 -0.000217959 0.000648326 0 0 0 0
929100000 -0.505429088 0.849609792 0.000633832 0.000974467 0 0 0 0
929550000 -0.492789408 0.860857088 -0.000102941 0.00017855 0 0 0 0
930000000 -0.476419616 0.86428448 1.018e-05 0.00029447 0 0 0 0
