# HZ S RI R 50
430000000 -1.23755848 -0.22483448 -0.00499042 -0.000957833 0 0 0 0
440700000 -1.271732928 -0.017784954 -0.004689794 -0.000996505 0 0 0 0
451400000 -1.269321216 0.198465456 -0.0044515 -0.001408842 0 0 0 0
462100000 -1.224670288 0.406644256 -0.004532869 -0.001000585 0 0 0 0
472800000 -1.144722944 0.606828288 -0.004688984 -0.001449622 0 0 0 0
483500000 -1.034447072 0.793228928 -0.00451629 -0.00135337 0 0 0 0
494200000 -0.888171328 0.955304896 -0.004498322 -0.001375771 0 0 0 0
504900000 -0.713619008 1.092886808 -0.004593432 -0.001033109 0 0 0 0
515600000 -0.51892096 1.19633496 -0.004164617 -0.001393592 0 0 0 0
526300000 -0.305842656 1.26167464 -0.004505431 -0.001030142 0 0 0 0
537000000 -0.085714048 1.288521536 -0.004872476 -0.001221799 0 0 0 0
547700000 0.127496544 1.269445184 -0.004470424 -0.001874557 0 0 0 0
558400000 0.33439056 1.223345168 -0.005328201 -0.000959426 0 0 0 0
569100000 0.527215968 1.138290288 -0.005085816 -0.000670048 0 0 0 0
579800000 0.701493696 1.02202046 -0.005285172 -0.001162262 0 0 0 0
590500000 0.840099072 0.881822336 -0.004764713 -0.000302563 0 0 0 0
601200000 0.960856 0.720064 -0.004737718 -0.000623855 0 0 0 0
611900000 1.045654892 0.536483936 -0.005063292 -0.000637592 0 0 0 0
622600000 1.096286776 0.3540664 -0.004450756 -0.00050431 0 0 0 0
633300000 1.12054348 0.146075136 -0.004992341 0.000103714 0 0 0 0
644000000 1.105445984 -0.056309088 -0.00477956 -0.000504156 0 0 0 0
654700000 1.06109178 -0.25216592 -0.004484603 -9.1454e-05 0 0 0 0
665400000 0.974462656 -0.430969344 -0.004222992 -0.000153927 0 0 0 0
676100000 0.855843136 -0.599143808 -0.004619662 0.000237358 0 0 0 0
686800000 0.719626816 -0.729637312 -0.002250584 0.000821088 0 0 0 0
697500000 0.56207328 -0.850548864 -0.003883359 5.8639e-05 0 0 0 0
708200000 0.383182368 -0.935576832 -0.003935833 -1.4574e-05 0 0 0 0
718900000 0.194025936 -0.989879488 -0.003617335 0.000508034 0 0 0 0
729600000 -0.00435718 -1.006028891 -0.00361631 0.000286014 0 0 0 0
740300000 -0.202836208 -0.987485376 -0.002811792 0.000234271 0 0 0 0
751000000 -0.39454592 -0.92976192 -0.002197323 0.000555892 0 0 0 0
761700000 -0.567372608 -0.839132864 -0.00187893 0.000241813 0 0 0 0
772400000 -0.7235456 -0.716437184 -0.00275767 -0.000427893 0 0 0 0
783100000 -0.857631872 -0.568410048 -0.003302499 -0.000506793 0 0 0 0
793800000 -0.95399392 -0.393409536 -0.003418177 -0.001117681 0 0 0 0
804500000 -1.01690936 -0.20540608 -0.003859073 -0.00034361 0 0 0 0
815200000 -1.042975068 -0.01076838 -0.004129557 -0.000520719 0 0 0 0
825900000 -1.026526452 0.18487328 -0.004135196 0.000152861 0 0 0 0
836600000 -0.97091808 0.369524608 -0.004462645 0.000969586 0 0 0 0
847300000 -0.876759616 0.543686656 -0.00351688 0.001364448 0 0 0 0
858000000 -0.753751488 0.690906816 -0.00275546 0.00192625 0 0 0 0
868700000 -0.589148352 0.819355584 -0.001883431 0.001972786 0 0 0 0
879400000 -0.394841696 0.897239936 -0.000948509 -0.000738385 0 0 0 0
890100000 -0.047800496 0.954186624 0.00108229 -0.00114477 0 0 0 0
900800000 0.711243904 0.461161536 0.016346168 -0.037564544 0 0 0 0
911500000 -0.256352192 0.022252052 0.579201152 -0.562429184 0 0 0 0
922200000 -0.663946048 0.718770752 0.007824244 0.005765384 0 0 0 0
932900000 -0.3170456 0.935292928 -0.001316285 -0.000317559 0 0 0 0
943600000 -0.087147552 0.992081856 -0.00091104 -0.001412103 0 0 0 0
954300000 0.103331488 0.993253824 -0.001551987 -0.001887399 0 0 0 0
965000000 0.27217376 0.938040256 -0.0028749 -0.001236889 0 0 0 0
975700000 0.421447424 0.865580608 -0.000572695 -0.001277856 0 0 0 0
986400000 0.548766272 0.779687296 -0.001652358 -0.000357737 0 0 0 0
997100000 0.657943872 0.663087232 -0.002206909 -0.00050719 0 0 0 0
1007800000 0.745024192 0.544780288 -0.000648049 -0.000104809 0 0 0 0
1018500000 0.824149312 0.404127136 -0.001614211 -0.001619471 0 0 0 0
1029200000 0.871248256 0.258467552 -0.003212771 -0.001257254 0 0 0 0
1039900000 0.896429312 0.097490528 2.504e-06 -0.002191097 0 0 0 0
1050600000 0.898732288 -0.054944084 -0.002169362 -0.001865369 0 0 0 0
1061300000 0.869270016 -0.212697056 -0.00301198 0.000873004 0 0 0 0
1072000000 0.816682048 -0.374081984 0.000184852 -0.003693429 0 0 0 0
1082700000 0.726378368 -0.520904 -0.003001729 0.000167851 0 0 0 0
1093400000 0.616142784 -0.65948352 -0.001382905 0.000180965 0 0 0 0
1104100000 0.487765696 -0.777724288 -0.003294971 -0.005589028 0 0 0 0
1114800000 0.345016 -0.855734976 -0.001680702 -0.001254598 0 0 0 0
1125500000 0.187215392 -0.911956992 -0.003540088 -0.004260775 0 0 0 0
1136200000 0.001808925 -0.964163072 -0.018726588 0.007688613 0 0 0 0
1146900000 -0.20998344 -0.950892224 -0.00661614 -0.003674248 0 0 0 0
1157600000 -0.371071328 -0.893151104 -0.002708262 -0.004555694 0 0 0 0
1168300000 -0.531702112 -0.805464064 -0.002653429 -0.00375594 0 0 0 0
1179000000 -0.65594816 -0.690257536 -0.003439868 -0.000705248 0 0 0 0
1189700000 -0.760044736 -0.5660592 -0.004550316 -0.003243531 0 0 0 0
1200400000 -0.842150272 -0.423924384 -0.003490903 0.001138261 0 0 0 0
1211100000 -0.895445184 -0.2723616 -0.003844142 0.003030873 0 0 0 0
1221800000 -0.912371584 -0.110542432 -0.005320185 -0.001800869 0 0 0 0
1232500000 -0.906411712 0.044031756 -0.007593843 -0.000558241 0 0 0 0
1243200000 -0.874987584 0.189515888 -0.007114732 0.00284738 0 0 0 0
1253900000 -0.811663936 0.324204864 -0.002290418 0.004114124 0 0 0 0
1264600000 -0.742852032 0.437022912 -0.006688467 0.00347041 0 0 0 0
1275300000 -0.649314432 0.52312256 -0.00603017 0.003226292 0 0 0 0
1286000000 -0.55384896 0.624209856 -0.005081218 0.002897387 0 0 0 0
1296700000 -0.41246128 0.67871232 -0.000823935 -0.00197985 0 0 0 0
1307400000 -0.293629088 0.735973248 -0.00539691 -0.001942282 0 0 0 0
1318100000 -0.155613376 0.750119808 -0.002072158 0.001366607 0 0 0 0
1328800000 -0.039691572 0.751062016 -0.002822505 -0.005906375 0 0 0 0
1339500000 0.101180096 0.730948544 -0.005179642 -0.005287889 0 0 0 0
1350200000 0.235883616 0.687617536 -0.0069628 -0.007599871 0 0 0 0
1360900000 0.361409696 0.606032704 -0.001986053 -0.002670488 0 0 0 0
1371600000 0.460494048 0.534837856 -0.004112521 -0.001484969 0 0 0 0
1382300000 0.598300992 0.427386944 -0.002102681 -0.003919632 0 0 0 0
1393000000 0.679467904 0.292888288 -0.004064689 -0.008119825 0 0 0 0
1403700000 0.72568896 0.157184256 -0.004021896 -0.000627401 0 0 0 0
1414400000 0.761012032 -0.015702302 -0.002463563 -0.002610801 0 0 0 0
1425100000 0.816991936 -0.167291968 -0.004078314 -0.007156753 0 0 0 0
1435800000 0.783460224 -0.354046112 -0.002681964 -0.003971649 0 0 0 0
1446500000 0.77896672 -0.525243168 -0.002874082 -0.004763384 0 0 0 0
1457200000 1.05234778 -0.6970496 -0.006942109 -0.000971844 0 0 0 0
1467900000 0.937801152 -0.900555136 0.004955587 -0.013006864 0 0 0 0
1478600000 0.689901248 -1.155016544 -0.007613903 -0.001522863 0 0 0 0
1489300000 0.504290592 -1.237745408 0.016606318 -0.027940184 0 0 0 0
1500000000 0.293353088 -1.406667456 0.003110981 -0.003347012 0 0 0 0
