# HZ S RI R 50
902000000 0.77198272 0.1711944 0.009399046 -0.075894528 0 0 0 0
902260000 0.761966592 0.075393168 0.004982457 -0.085878688 0 0 0 0
902520000 0.757266432 -0.00052227 -0.003014792 -0.09935556 0 0 0 0
902780000 0.731939712 -0.092715312 -0.012573746 -0.114824416 0 0 0 0
903040000 0.692664192 -0.185617936 -0.02708061 -0.130852776 0 0 0 0
903300000 0.633287936 -0.270227552 -0.0449441 -0.146549216 0 0 0 0
903560000 0.55808128 -0.353244544 -0.068591152 -0.159680128 0 0 0 0
903820000 0.47970464 -0.433511392 -0.099499096 -0.174779392 0 0 0 0
904080000 0.36806048 -0.501247936 -0.137890336 -0.1865952 0 0 0 0
904340000 0.254496304 -0.548559552 -0.184333392 -0.191344112 0 0 0 0
904600000 0.127070736 -0.577786368 -0.239489472 -0.186369632 0 0 0 0
904860000 -0.016862382 -0.583119488 -0.301671648 -0.167395024 0 0 0 0
905120000 -0.15683016 -0.552099584 -0.367183808 -0.127790872 0 0 0 0
905380000 -0.286148512 -0.480092928 -0.429632672 -0.070255352 0 0 0 0
905640000 -0.390464768 -0.38895472 -0.477447808 0.009505048 0 0 0 0
905900000 -0.464436928 -0.276022848 -0.508091808 0.105891752 0 0 0 0
906160000 -0.501455552 -0.15290176 -0.512945664 0.212447952 0 0 0 0
906420000 -0.505184064 -0.029298632 -0.495321888 0.321592096 0 0 0 0
906680000 -0.476880544 0.070220488 -0.448642976 0.42649088 0 0 0 0
906940000 -0.412279008 0.157559408 -0.379367456 0.523050912 0 0 0 0
907200000 -0.35179904 0.199527488 -0.29019248 0.600705152 0 0 0 0
907460000 -0.279414368 0.22582616 -0.193413536 0.663425088 0 0 0 0
907720000 -0.217019632 0.220150096 -0.066255332 0.718494208 0 0 0 0
907980000 -0.169647072 0.196994112 0.057942124 0.736023296 0 0 0 0
908240000 -0.143985248 0.174306736 0.19735656 0.733390464 0 0 0 0
908500000 -0.135553536 0.135311008 0.33104288 0.705060224 0 0 0 0
908760000 -0.135954528 0.108010104 0.455251392 0.652484224 0 0 0 0
909020000 -0.147245072 0.08127292 0.566540032 0.564796416 0 0 0 0
909280000 -0.1680088 0.067627648 0.658553728 0.461284192 0 0 0 0
909540000 -0.18736704 0.054910084 0.728793152 0.349727168 0 0 0 0
909800000 -0.200801952 0.056598812 0.7793216 0.228540272 0 0 0 0
910060000 -0.21526912 0.038455292 0.790638144 0.106512192 0 0 0 0
910320000 -0.2278292 0.050975936 0.807999104 -0.032891184 0 0 0 0
910580000 -0.234979088 0.05245952 0.796770048 -0.160298864 0 0 0 0
910840000 -0.235494592 0.044759484 0.758013696 -0.294102496 0 0 0 0
911100000 -0.2480328 0.032470844 0.696184192 -0.412948992 0 0 0 0
911360000 -0.253390752 0.024478886 0.623469952 -0.51489664 0 0 0 0
911620000 -0.271995232 0.019085588 0.533380448 -0.60794208 0 0 0 0
911880000 -0.284910272 0.014794178 0.41930608 -0.68171744 0 0 0 0
912140000 -0.303812224 0.008748972 0.29914624 -0.740083328 0 0 0 0
912400000 -0.319333088 0.005046631 0.164746608 -0.76657664 0 0 0 0
912660000 -0.334271264 0.002608682 0.03320846 -0.78138784 0 0 0 0
912920000 -0.34497856 -0.001936809 -0.105738584 -0.76686432 0 0 0 0
913180000 -0.360381056 -0.010018658 -0.237943392 -0.7253008 0 0 0 0
913440000 -0.37317664 -0.014006378 -0.365988448 -0.65678528 0 0 0 0
913700000 -0.382495264 -0.026774592 -0.474976512 -0.564648064 0 0 0 0
913960000 -0.405541792 -0.04802252 -0.563908416 -0.443863616 0 0 0 0
914220000 -0.430077024 -0.067737272 -0.618230976 -0.30095296 0 0 0 0
914480000 -0.476324672 -0.093338144 -0.634888064 -0.14680776 0 0 0 0
914740000 -0.532622048 -0.109251688 -0.603299776 -0.002650499 0 0 0 0
915000000 -0.606563136 -0.110332728 -0.526009088 0.120345728 0 0 0 0
915260000 -0.672446976 -0.081770272 -0.431079648 0.19965112 0 0 0 0
915520000 -0.734212928 -0.051583896 -0.333793888 0.243829536 0 0 0 0
915780000 -0.782433024 -0.000306989 -0.246391376 0.253214144 0 0 0 0
916040000 -0.815657408 0.050032256 -0.17669064 0.246308208 0 0 0 0
916300000 -0.845204224 0.107236352 -0.122437344 0.229885696 0 0 0 0
916560000 -0.862141568 0.158022128 -0.075504768 0.208284192 0 0 0 0
916820000 -0.870531456 0.203816608 -0.042824684 0.185409536 0 0 0 0
917080000 -0.877018752 0.257062192 -0.016488776 0.16009448 0 0 0 0
917340000 -0.875593664 0.302682176 -0.001291473 0.13702824 0 0 0 0
917600000 -0.864790656 0.340796032 0.009569024 0.116104384 0 0 0 0
917860000 -0.85730528 0.383905984 0.016629354 0.098544944 0 0 0 0
918120000 -0.852655296 0.419897312 0.021938624 0.081057152 0 0 0 0
918380000 -0.838065984 0.45080144 0.022588924 0.0670643 0 0 0 0
918640000 -0.828404544 0.473714144 0.022531384 0.057695184 0 0 0 0
918900000 -0.819264704 0.509519456 0.02136227 0.048251036 0 0 0 0
919160000 -0.800329728 0.535143264 0.020107352 0.040289656 0 0 0 0
919420000 -0.796055488 0.556863872 0.020508118 0.033123984 0 0 0 0
919680000 -0.778903168 0.580167104 0.017999794 0.029887982 0 0 0 0
919940000 -0.764932608 0.595430208 0.017618582 0.024056618 0 0 0 0
920200000 -0.754317888 0.61658112 0.01700524 0.021428344 0 0 0 0
920460000 -0.734768768 0.630529792 0.014661004 0.018362076 0 0 0 0
920720000 -0.72351168 0.6428608 0.0137594 0.016144998 0 0 0 0
920980000 -0.711461248 0.663002624 0.012158816 0.013360746 0 0 0 0
921240000 -0.701493696 0.671976128 0.010728594 0.012418256 0 0 0 0
921500000 -0.688269184 0.685790592 0.009879108 0.011024928 0 0 0 0
921760000 -0.681095744 0.699655104 0.0084875 0.009223204 0 0 0 0
922020000 -0.668175296 0.713954816 0.00908956 0.00788021 0 0 0 0
922280000 -0.662104576 0.723845696 0.00643305 0.00801651 0 0 0 0
922540000 -0.647956864 0.732913984 0.006811364 0.005757552 0 0 0 0
922800000 -0.63869248 0.748445888 0.006145786 0.005544402 0 0 0 0
923060000 -0.628584448 0.752295424 0.005305509 0.003626126 0 0 0 0
923320000 -0.619216768 0.76215104 0.005876924 0.004583171 0 0 0 0
923580000 -0.602508032 0.7702576 0.003784182 0.003935147 0 0 0 0
923840000 -0.596995776 0.783953152 0.003614938 0.003154203 0 0 0 0
924100000 -0.587134976 0.78814464 0.005062964 0.003320399 0 0 0 0
924360000 -0.574233216 0.796122112 0.003356381 0.002697372 0 0 0 0
924620000 -0.568270464 0.809326976 0.001947444 0.002369199 0 0 0 0
924880000 -0.556049856 0.81184288 0.003756203 0.002881919 0 0 0 0
925140000 -0.46295136 0.800481536 0.001006443 0.002208701 0 0 0 0
925400000 -0.539507904 0.83350464 0.001491069 0.001882413 0 0 0 0
925660000 -0.532210336 0.831814208 0.002030688 0.001379447 0 0 0 0
925920000 -0.519961824 0.836865984 0.002862178 -1.4197e-05 0 0 0 0
926180000 -0.5099424 0.839806656 0.001490361 0.000898388 0 0 0 0
926440000 -0.503162624 0.840024896 0.001323582 -5.6506e-05 0 0 0 0
926700000 -0.49277872 0.853509952 0.001343373 0.00045215 0 0 0 0
926960000 -0.483478752 0.8595104 0.000355532 0.001239251 0 0 0 0
927220000 -0.475732096 0.86467552 0.002098151 -0.000301947 0 0 0 0
927480000 -0.467341472 0.863920896 0.001118433 0.000582149 0 0 0 0
927740000 -0.458488352 0.868710336 0.000204512 0.000205143 0 0 0 0
928000000 -0.45456704 0.871193984 0.000975992 -0.000254653 0 0 0 0
