# HZ S RI R 50
890000000 -0.022844158 -0.56362688
890600000 -0.02454157 -0.560896192
891200000 -0.023029304 -0.550694464
891800000 -0.024683422 -0.547238976
892400000 -0.029087748 -0.533584352
893000000 -0.03368962 -0.530005984
893600000 -0.033430144 -0.520006048
894200000 -0.032461546 -0.510200864
894800000 -0.035557404 -0.506894112
895400000 -0.0370213 -0.50071776
896000000 -0.039839168 -0.486830752
896600000 -0.040107896 -0.485627136
897200000 -0.03756146 -0.477997152
897800000 -0.037597732 -0.466887872
898400000 -0.039083676 -0.459907584
899000000 -0.039433064 -0.4504992
899600000 -0.038472792 -0.4438416
900200000 -0.037333172 -0.44211936
900800000 -0.03618104 -0.433960576
901400000 -0.039328664 -0.422157536
902000000 -0.034929864 -0.415020416
902600000 -0.034692612 -0.41027568
903200000 -0.039074156 -0.406025696
903800000 -0.035381972 -0.395916192
904400000 -0.031240606 -0.388807776
905000000 -0.03493274 -0.378100384
905600000 -0.03235975 -0.37332272
906200000 -0.013840514 -0.360239904
906800000 -0.030405346 -0.358489984
907400000 -0.027674854 -0.346660864
908000000 -0.020283708 -0.337657888
908600000 -0.020388422 -0.324223008
909200000 -0.01532997 -0.321461952
909800000 -0.018193836 -0.31691552
910400000 -0.008699502 -0.298627328
911000000 -0.017041382 -0.298283968
911600000 -0.008696498 -0.279299008
912200000 -0.003994074 -0.27410288
912800000 0.001795895 -0.267699008
913400000 0.009585056 -0.248558816
914000000 0.014039012 -0.245151536
914600000 0.02005785 -0.236387376
915200000 0.02676609 -0.222168944
915800000 0.034763004 -0.214805184
916400000 0.043276768 -0.20690184
917000000 0.049955272 -0.196425376
917600000 0.056293616 -0.188666592
918200000 0.065742724 -0.180489536
918800000 0.077026848 -0.176334432
919400000 0.08737496 -0.163571232
920000000 0.098610344 -0.158984704
920600000 0.10797468 -0.150117568
921200000 0.124788776 -0.144060464
921800000 0.135592256 -0.137059088
922400000 0.138764672 -0.127025592
923000000 0.159290176 -0.127547968
923600000 0.171230144 -0.126024024
924200000 0.187833744 -0.123159952
924800000 0.193593568 -0.118912344
925400000 0.206623472 -0.119573792
926000000 0.221644464 -0.126148376
926600000 0.23381088 -0.113045528
927200000 0.248028944 -0.108868728
927800000 0.25427296 -0.11718648
928400000 0.268677536 -0.115033272
929000000 0.279997888 -0.113483456
929600000 0.294095776 -0.111736992
930200000 0.303288448 -0.112601992
930800000 0.31921776 -0.111220824
931400000 0.332514464 -0.116737888
932000000 0.3468416 -0.116486256
932600000 0.36567776 -0.111090552
933200000 0.384089344 -0.116977232
933800000 0.403396064 -0.122747408
934400000 0.417826528 -0.132372584
935000000 0.434267168 -0.140807424
935600000 0.453293248 -0.154766256
936200000 0.46480512 -0.167865616
936800000 0.477225824 -0.18206544
937400000 0.490980896 -0.194510864
938000000 0.502203776 -0.206402304
938600000 0.509659776 -0.223655744
939200000 0.522793696 -0.23852648
939800000 0.532441568 -0.249824416
940400000 0.5354408 -0.27124368
941000000 0.539221056 -0.289318432
941600000 0.537536192 -0.301273184
942200000 0.536100032 -0.325754144
942800000 0.537372224 -0.337122208
943400000 0.54036288 -0.349974784
944000000 0.548568896 -0.366498656
944600000 0.534872896 -0.378278816
945200000 0.534259424 -0.392298432
945800000 0.533868544 -0.406441408
946400000 0.535320992 -0.419715232
947000000 0.523403584 -0.428560096
947600000 0.5138712 -0.440632512
948200000 0.500936864 -0.451037632
948800000 0.504903328 -0.461755648
949400000 0.49703392 -0.471059904
950000000 0.485448384 -0.47635536
