# HZ S RI R 50
890000000 0.92237568 -0.3635472
890600000 0.921570752 -0.369224096
891200000 0.921571776 -0.36468624
891800000 0.937057472 -0.334121536
892400000 0.9149648 -0.364347808
893000000 0.922070208 -0.361992416
893600000 0.916603712 -0.36619536
894200000 0.91754496 -0.367748128
894800000 0.922309312 -0.358395584
895400000 0.917945216 -0.36380784
896000000 0.928360448 -0.37291424
896600000 0.919019264 -0.37183024
897200000 0.922948032 -0.366859136
897800000 0.919634624 -0.371607936
898400000 0.920610368 -0.370320768
899000000 0.921202368 -0.3756848
899600000 0.92223232 -0.372130208
900200000 0.9206256 -0.369966944
900800000 0.914159552 -0.37707232
901400000 0.921316992 -0.370725024
902000000 0.91988192 -0.378407968
902600000 0.923931456 -0.375062624
903200000 0.915715328 -0.380010112
903800000 0.919342528 -0.371532512
904400000 0.923633408 -0.372720128
905000000 0.925119552 -0.374977664
905600000 0.915949888 -0.369321952
906200000 0.933945216 -0.477009312
906800000 0.92667264 -0.377870752
907400000 0.913774656 -0.380773824
908000000 0.920596928 -0.380760672
908600000 0.910978048 -0.380539584
909200000 0.91547808 -0.382801152
909800000 0.910737216 -0.387727872
910400000 0.916337408 -0.381553984
911000000 0.896116544 -0.383293632
911600000 0.91703744 -0.38160512
912200000 0.918940992 -0.372649632
912800000 0.912750208 -0.374407872
913400000 0.925219264 -0.366952672
914000000 0.917841728 -0.37866176
914600000 0.91680256 -0.37403424
915200000 0.915468224 -0.380891904
915800000 0.916941696 -0.382383808
916400000 0.917945344 -0.381461024
917000000 0.910273344 -0.385908576
917600000 0.922641856 -0.37907744
918200000 0.920413184 -0.388064032
918800000 0.916781312 -0.379676704
919400000 0.913268736 -0.388716512
920000000 0.911858752 -0.385092768
920600000 0.920448576 -0.379682368
921200000 0.91256768 -0.384890784
921800000 0.914892096 -0.380815488
922400000 0.934230784 -0.402252544
923000000 0.917930624 -0.381750944
923600000 0.911816256 -0.384171936
924200000 0.914908544 -0.384987392
924800000 0.91637984 -0.380714048
925400000 0.93076192 -0.3860576
926000000 0.913098816 -0.388354272
926600000 0.911054272 -0.383996768
927200000 0.914179456 -0.386501376
927800000 0.910513024 -0.38845248
928400000 0.916997568 -0.383966304
929000000 0.91488704 -0.392186528
929600000 0.919769216 -0.389950048
930200000 0.91196128 -0.389307136
930800000 0.915180032 -0.391764384
931400000 0.908332608 -0.4018168
932000000 0.916194944 -0.392055776
932600000 0.910365056 -0.386663264
933200000 0.91424544 -0.392507456
933800000 0.913132544 -0.384182848
934400000 0.915776384 -0.386908608
935000000 0.910388864 -0.390100704
935600000 0.911252864 -0.39279168
936200000 0.9115232 -0.392222016
936800000 0.908905984 -0.397262112
937400000 0.91334368 -0.388082304
938000000 0.908043072 -0.397191648
938600000 0.909137472 -0.390190144
939200000 0.911615168 -0.398455296
939800000 0.908688768 -0.393894688
940400000 0.916749824 -0.38910608
941000000 0.90942336 -0.400786912
941600000 0.91476224 -0.395789632
942200000 0.907020416 -0.404694592
942800000 0.910814208 -0.398927936
943400000 0.905257984 -0.394069696
944000000 0.899624192 -0.39447488
944600000 0.910250304 -0.3952816
945200000 0.908540352 -0.394636608
945800000 0.907063936 -0.397322816
946400000 0.890632512 -0.3928352
947000000 0.912898432 -0.394751552
947600000 0.911029504 -0.395262656
948200000 0.914645248 -0.400592608
948800000 0.904976768 -0.399153952
949400000 0.90927488 -0.399004384
950000000 0.913437056 -0.396982624
