# HZ S RI R 50
890000000 -0.02118409 0.330914656
890600000 -0.009468006 0.321203552
891200000 -0.008738328 0.320579008
891800000 0.007308538 0.325418848
892400000 0.009158406 0.313195168
893000000 0.016867036 0.318253376
893600000 0.021853318 0.309988544
894200000 0.033696788 0.308416352
894800000 0.037184368 0.308315648
895400000 0.045453636 0.305124896
896000000 0.048206792 0.297228416
896600000 0.057474012 0.2987544
897200000 0.062218068 0.288675776
897800000 0.070774008 0.291803072
898400000 0.074139504 0.281115552
899000000 0.081666288 0.284538496
899600000 0.089109888 0.278656672
900200000 0.090299528 0.274545408
900800000 0.101425928 0.271644416
901400000 0.109763176 0.262815808
902000000 0.109218968 0.259502464
902600000 0.11613992 0.25186864
903200000 0.122427072 0.25275344
903800000 0.130976664 0.24411944
904400000 0.132406176 0.23705048
905000000 0.138890064 0.235986368
905600000 0.14760952 0.227875184
906200000 0.147551776 0.19824416
906800000 0.15372088 0.21559552
907400000 0.162372848 0.211543232
908000000 0.166536432 0.211712608
908600000 0.178552928 0.201425072
909200000 0.177274608 0.191879936
909800000 0.180635488 0.187913456
910400000 0.181194016 0.182592
911000000 0.183505216 0.166368016
911600000 0.189672064 0.172040112
912200000 0.193494576 0.161007472
912800000 0.196027648 0.154318064
913400000 0.207793232 0.15051352
914000000 0.206184016 0.143681696
914600000 0.206118032 0.134863664
915200000 0.209994624 0.131792752
915800000 0.213839184 0.115771744
916400000 0.215699136 0.115501848
917000000 0.217245472 0.108806072
917600000 0.216615744 0.10328384
918200000 0.224808528 0.09517712
918800000 0.230700112 0.086251592
919400000 0.231652992 0.082935048
920000000 0.228523008 0.073832384
920600000 0.231860224 0.062628208
921200000 0.232536864 0.062912168
921800000 0.235783856 0.047225228
922400000 0.232758928 0.0510401
923000000 0.242314224 0.035187128
923600000 0.240554848 0.027662914
924200000 0.239242064 0.02589869
924800000 0.23909616 0.019723006
925400000 0.232531232 0.001109197
926000000 0.232571312 0.003508853
926600000 0.235549824 -0.004840849
927200000 0.231373376 -0.008002581
927800000 0.23031104 -0.016122676
928400000 0.224009792 -0.023319352
929000000 0.227219376 -0.02523984
929600000 0.222598016 -0.03230862
930200000 0.223820688 -0.039114936
930800000 0.227062432 -0.041078512
931400000 0.226141408 -0.047747028
932000000 0.226054736 -0.051736144
932600000 0.2174152 -0.057495328
933200000 0.227332288 -0.057647264
933800000 0.219433136 -0.064212836
934400000 0.225579152 -0.065879412
935000000 0.225803696 -0.072775408
935600000 0.217126384 -0.078347008
936200000 0.225803296 -0.080371944
936800000 0.222027376 -0.090716152
937400000 0.223526416 -0.096166824
938000000 0.220894272 -0.098152416
938600000 0.22113408 -0.109323568
939200000 0.218533296 -0.113509864
939800000 0.226415168 -0.117428344
940400000 0.222232528 -0.129257072
941000000 0.220098928 -0.134495072
941600000 0.221707344 -0.132009
942200000 0.218869856 -0.140490944
942800000 0.214601456 -0.149530112
943400000 0.218680784 -0.149222976
944000000 0.214555968 -0.155561264
944600000 0.21140192 -0.1655024
945200000 0.213116256 -0.167630832
945800000 0.210818112 -0.175284432
946400000 0.214001664 -0.172828752
947000000 0.202433584 -0.18558392
947600000 0.202464368 -0.1903448
948200000 0.202802304 -0.196942144
948800000 0.197533936 -0.206090496
949400000 0.196577312 -0.209217296
950000000 0.195791264 -0.210040944
