# HZ S RI R 50
890000000 -0.56664416 0.1834172
890600000 -0.561960256 0.18453528
891200000 -0.55485632 0.192188816
891800000 -0.543877376 0.202052416
892400000 -0.543098688 0.19940416
893000000 -0.53423392 0.200341344
893600000 -0.533226304 0.207463296
894200000 -0.519410976 0.206907808
894800000 -0.511896384 0.202156656
895400000 -0.509118624 0.215776656
896000000 -0.505909568 0.221735872
896600000 -0.497318528 0.222356448
897200000 -0.493961344 0.223258176
897800000 -0.487944416 0.228994208
898400000 -0.480207104 0.229683152
899000000 -0.473789984 0.234614224
899600000 -0.469194912 0.236735344
900200000 -0.458995072 0.239192944
900800000 -0.452141312 0.241368576
901400000 -0.447042688 0.244659776
902000000 -0.440484032 0.24161584
902600000 -0.433189216 0.24576048
903200000 -0.430686016 0.242839072
903800000 -0.424697056 0.251364208
904400000 -0.417697056 0.247351088
905000000 -0.413938336 0.247685328
905600000 -0.40600304 0.251493664
906200000 -0.386666368 0.239454128
906800000 -0.400275168 0.244264624
907400000 -0.395043584 0.252182032
908000000 -0.388233024 0.245627072
908600000 -0.387643584 0.246911168
909200000 -0.382281888 0.256635312
909800000 -0.376321312 0.258209616
910400000 -0.37584048 0.251141344
911000000 -0.372445952 0.25177488
911600000 -0.370785728 0.252625856
912200000 -0.362650048 0.256844496
912800000 -0.36054976 0.258349392
913400000 -0.358716032 0.253145664
914000000 -0.354826368 0.261644416
914600000 -0.350500896 0.266529776
915200000 -0.348102272 0.267254912
915800000 -0.345858976 0.267120544
916400000 -0.342943904 0.269574656
917000000 -0.338814336 0.273369216
917600000 -0.327792896 0.276029216
918200000 -0.32952432 0.276648448
918800000 -0.320948128 0.280076832
919400000 -0.316239456 0.2853016
920000000 -0.309031808 0.279615904
920600000 -0.303262304 0.285694304
921200000 -0.301122272 0.282800224
921800000 -0.297133856 0.287148032
922400000 -0.285395424 0.287073696
923000000 -0.287486368 0.290726528
923600000 -0.284399168 0.288883584
924200000 -0.273956224 0.289194048
924800000 -0.275181824 0.288688256
925400000 -0.26546008 0.29079888
926000000 -0.263997472 0.287282144
926600000 -0.261636768 0.292487456
927200000 -0.253398176 0.292557504
927800000 -0.25335216 0.290983936
928400000 -0.241925344 0.295947552
929000000 -0.240776544 0.292392352
929600000 -0.231608272 0.295981792
930200000 -0.229854944 0.302227328
930800000 -0.22667288 0.302451328
931400000 -0.212840576 0.302005408
932000000 -0.21306992 0.304235072
932600000 -0.200341408 0.299852416
933200000 -0.199916848 0.303445344
933800000 -0.188112848 0.298898496
934400000 -0.186758768 0.298752832
935000000 -0.180496464 0.296567264
935600000 -0.17301552 0.299710656
936200000 -0.164130304 0.295465632
936800000 -0.162412144 0.293855712
937400000 -0.152465328 0.29171392
938000000 -0.154766576 0.288818048
938600000 -0.143802064 0.283598688
939200000 -0.1355508 0.288571744
939800000 -0.134384608 0.281474048
940400000 -0.124491984 0.282291904
941000000 -0.122251336 0.281667552
941600000 -0.119249792 0.279587232
942200000 -0.113937432 0.274926848
942800000 -0.10753508 0.26973424
943400000 -0.097761456 0.266728224
944000000 -0.096990424 0.261309536
944600000 -0.092680072 0.260510288
945200000 -0.084836904 0.259058656
945800000 -0.083420592 0.253658
946400000 -0.08141416 0.254388272
947000000 -0.076711896 0.252434016
947600000 -0.072776056 0.241574736
948200000 -0.067980032 0.244520944
948800000 -0.063485616 0.242581376
949400000 -0.05792298 0.237683536
950000000 -0.0545096 0.231713408
