# HZ S RI R 50
890000000 0.561189824 -0.187365408
890600000 0.564198784 -0.19045048
891200000 0.565916416 -0.187198096
891800000 0.564856256 -0.208242496
892400000 0.562826304 -0.20303672
893000000 0.556907072 -0.206903104
893600000 0.558966272 -0.210417216
894200000 0.552966592 -0.207619904
894800000 0.552290112 -0.230550912
895400000 0.547098304 -0.216529424
896000000 0.552582784 -0.224783792
896600000 0.547721088 -0.224975232
897200000 0.541401984 -0.229872912
897800000 0.538689536 -0.231105904
898400000 0.538018112 -0.233098352
899000000 0.538487744 -0.2296204
899600000 0.531474784 -0.240658768
900200000 0.53300304 -0.245254192
900800000 0.532478464 -0.24927136
901400000 0.531875008 -0.245221424
902000000 0.525039968 -0.255679728
902600000 0.52654976 -0.2543996
903200000 0.529483136 -0.254938816
903800000 0.527465984 -0.2602472
904400000 0.52784688 -0.259690576
905000000 0.525498976 -0.268020336
905600000 0.51397424 -0.271936864
906200000 0.555984256 -0.329222336
906800000 0.518166368 -0.274611968
907400000 0.515327104 -0.28387024
908000000 0.513262272 -0.288714464
908600000 0.511000704 -0.290166912
909200000 0.506411776 -0.287853472
909800000 0.494419648 -0.285268064
910400000 0.504484064 -0.294493088
911000000 0.49402112 -0.288622048
911600000 0.493444512 -0.298306752
912200000 0.501967776 -0.303397536
912800000 0.489748672 -0.308649088
913400000 0.498754976 -0.31625312
914000000 0.485014752 -0.310983584
914600000 0.488532096 -0.318009888
915200000 0.483317056 -0.319389504
915800000 0.486965184 -0.326534528
916400000 0.473053664 -0.327953952
917000000 0.475965888 -0.334985888
917600000 0.468399488 -0.338724544
918200000 0.474074944 -0.339513824
918800000 0.465705152 -0.341860032
919400000 0.469692224 -0.338182176
920000000 0.46319792 -0.351380032
920600000 0.453095136 -0.34966832
921200000 0.45445328 -0.355567904
921800000 0.446391072 -0.360489856
922400000 0.456464704 -0.35160304
923000000 0.4450496 -0.3584584
923600000 0.446463328 -0.36407296
924200000 0.440895872 -0.368549024
924800000 0.437920896 -0.367058752
925400000 0.439562656 -0.38141824
926000000 0.43226336 -0.378368256
926600000 0.424699072 -0.376878464
927200000 0.423792032 -0.381484832
927800000 0.41762864 -0.388474432
928400000 0.410403648 -0.388393728
929000000 0.410163424 -0.39021872
929600000 0.408217184 -0.390348448
930200000 0.40388448 -0.393034592
930800000 0.402028672 -0.396557184
931400000 0.400708512 -0.393163168
932000000 0.396332096 -0.404324832
932600000 0.391047232 -0.40942032
933200000 0.387564864 -0.409560256
933800000 0.383044928 -0.41457168
934400000 0.374828096 -0.409939008
935000000 0.372065664 -0.420476448
935600000 0.368083648 -0.416752352
936200000 0.3677736 -0.4254048
936800000 0.360782336 -0.42386464
937400000 0.357815296 -0.427986464
938000000 0.350968608 -0.425170336
938600000 0.353546624 -0.4300024
939200000 0.345856672 -0.436504096
939800000 0.338241056 -0.433676384
940400000 0.337648672 -0.436976256
941000000 0.329846656 -0.440719936
941600000 0.322865632 -0.437583072
942200000 0.317426848 -0.44278416
942800000 0.317178496 -0.440635328
943400000 0.31668256 -0.442322656
944000000 0.307572672 -0.4487368
944600000 0.306612576 -0.449812064
945200000 0.301710272 -0.45112672
945800000 0.297176256 -0.440006016
946400000 0.305956512 -0.451291744
947000000 0.28870816 -0.447276704
947600000 0.282445472 -0.457943008
948200000 0.273700768 -0.453513024
948800000 0.273425664 -0.457098208
949400000 0.270170912 -0.453464704
950000000 0.268663296 -0.455060224
