# HZ S RI R 50
890000000 0.356928736 -0.652424704
890600000 0.358644832 -0.646343232
891200000 0.360685664 -0.652687616
891800000 0.340887776 -0.65484576
892400000 0.361720736 -0.658583744
893000000 0.353298752 -0.655045376
893600000 0.35457744 -0.650347264
894200000 0.352951776 -0.6535488
894800000 0.369513536 -0.659752128
895400000 0.353553856 -0.654089152
896000000 0.356923808 -0.65139872
896600000 0.351642368 -0.657073472
897200000 0.35559392 -0.658411712
897800000 0.353755488 -0.654748544
898400000 0.355869248 -0.650337344
899000000 0.354298624 -0.65597632
899600000 0.35048576 -0.656273408
900200000 0.350959296 -0.654837248
900800000 0.352879936 -0.66341248
901400000 0.355662528 -0.664004608
902000000 0.3566488 -0.657956992
902600000 0.356508256 -0.664671424
903200000 0.356210144 -0.66131392
903800000 0.352209216 -0.665291776
904400000 0.356898048 -0.660652288
905000000 0.35791376 -0.660293888
905600000 0.35629408 -0.658672704
906200000 0.326296576 -0.715255552
906800000 0.352549952 -0.669368832
907400000 0.350907648 -0.661877184
908000000 0.345194784 -0.664947584
908600000 0.350777696 -0.661035968
909200000 0.34459344 -0.667285056
909800000 0.351204224 -0.668703104
910400000 0.34849552 -0.666282304
911000000 0.340796992 -0.680485632
911600000 0.353200704 -0.672175104
912200000 0.35326704 -0.669502336
912800000 0.348812 -0.671854208
913400000 0.354340608 -0.674195712
914000000 0.348461856 -0.672533376
914600000 0.352035712 -0.674257856
915200000 0.347007648 -0.66891392
915800000 0.348177952 -0.669027008
916400000 0.345699232 -0.673195456
917000000 0.347053792 -0.677900608
917600000 0.349981344 -0.673976768
918200000 0.347544864 -0.675104128
918800000 0.345026944 -0.679995392
919400000 0.340533472 -0.675257216
920000000 0.344977984 -0.682859264
920600000 0.342030208 -0.681062336
921200000 0.34386976 -0.673963456
921800000 0.340802368 -0.679328512
922400000 0.330723136 -0.683713088
923000000 0.346969984 -0.684559936
923600000 0.344696928 -0.685169984
924200000 0.344526304 -0.680672256
924800000 0.343464448 -0.686116864
925400000 0.345183712 -0.67792928
926000000 0.343010176 -0.683060544
926600000 0.335430112 -0.684814464
927200000 0.335410016 -0.68306464
927800000 0.340335552 -0.685067328
928400000 0.338362848 -0.688363776
929000000 0.338974016 -0.688633216
929600000 0.330905312 -0.693781568
930200000 0.3282448 -0.691148544
930800000 0.330673952 -0.694090688
931400000 0.32872624 -0.68703168
932000000 0.336866752 -0.691485056
932600000 0.335812544 -0.692447552
933200000 0.335760256 -0.694174464
933800000 0.333987392 -0.69336832
934400000 0.333057952 -0.692192
935000000 0.3258016 -0.690157376
935600000 0.329505312 -0.689041472
936200000 0.329432928 -0.696499264
936800000 0.33003648 -0.696927872
937400000 0.332972064 -0.694367744
938000000 0.33253632 -0.69010944
938600000 0.32936336 -0.692929536
939200000 0.331636736 -0.697249856
939800000 0.33076112 -0.69982432
940400000 0.328657088 -0.69929248
941000000 0.32592368 -0.69402752
941600000 0.329095424 -0.693648896
942200000 0.322503296 -0.700395072
942800000 0.326365312 -0.706183808
943400000 0.324707968 -0.705184128
944000000 0.317365152 -0.703667584
944600000 0.323537152 -0.698747136
945200000 0.323348896 -0.700544896
945800000 0.319761536 -0.702934592
946400000 0.310542016 -0.700923456
947000000 0.31742512 -0.707994432
947600000 0.324963968 -0.709757376
948200000 0.32278336 -0.706599424
948800000 0.320304256 -0.705338496
949400000 0.31600016 -0.710787328
950000000 0.31768944 -0.713403008
