# HZ S RI R 50
890000000 0.587868864 -0.15267048
890600000 0.579673536 -0.15598352
891200000 0.577869696 -0.162533136
891800000 0.580920256 -0.151847392
892400000 0.556425088 -0.155676256
893000000 0.55068992 -0.163679872
893600000 0.539937024 -0.166071376
894200000 0.532688384 -0.163587568
894800000 0.527015616 -0.166346048
895400000 0.514667808 -0.169622192
896000000 0.508296 -0.17157976
896600000 0.50071632 -0.168660768
897200000 0.489802912 -0.168164432
897800000 0.48657408 -0.168916048
898400000 0.478973568 -0.170445424
899000000 0.469012544 -0.174293968
899600000 0.459477504 -0.173428448
900200000 0.448454592 -0.173383424
900800000 0.442658464 -0.172937552
901400000 0.433882432 -0.173264592
902000000 0.420199232 -0.174679024
902600000 0.419474624 -0.1633064
903200000 0.404926784 -0.165830144
903800000 0.393981888 -0.162544832
904400000 0.391048704 -0.159172
905000000 0.377382816 -0.160458368
905600000 0.370753216 -0.160186544
906200000 0.350040384 -0.190764464
906800000 0.361110752 -0.148800192
907400000 0.345159552 -0.14975528
908000000 0.338413088 -0.136939296
908600000 0.335124608 -0.1380092
909200000 0.317534976 -0.13400672
909800000 0.319045216 -0.129387872
910400000 0.310635008 -0.120112112
911000000 0.305646496 -0.104732296
911600000 0.299534176 -0.114596448
912200000 0.29457776 -0.11340764
912800000 0.276146336 -0.10572392
913400000 0.273516864 -0.096398248
914000000 0.268916512 -0.095659048
914600000 0.265040544 -0.089114968
915200000 0.26102408 -0.086897992
915800000 0.257290816 -0.080389544
916400000 0.255590592 -0.071342248
917000000 0.244655808 -0.071117672
917600000 0.237973424 -0.060888012
918200000 0.238979856 -0.05771138
918800000 0.235845728 -0.0510607
919400000 0.229859472 -0.037182104
920000000 0.231022576 -0.032786746
920600000 0.221669456 -0.024740308
921200000 0.226238896 -0.022367796
921800000 0.221268928 -0.018717856
922400000 0.219805744 -0.014794076
923000000 0.209398176 -0.010969576
923600000 0.207437504 0.000364552
924200000 0.206783008 0.00726523
924800000 0.197074944 0.012290042
925400000 0.194471744 0.021133584
926000000 0.196956208 0.029829454
926600000 0.19197208 0.033154346
927200000 0.195489648 0.03565628
927800000 0.191996016 0.042085096
928400000 0.1875668 0.048162952
929000000 0.186968816 0.056178176
929600000 0.193180864 0.058626332
930200000 0.189808928 0.068170704
930800000 0.185029632 0.074841072
931400000 0.182237168 0.080000704
932000000 0.183348672 0.087122872
932600000 0.18247584 0.094058728
933200000 0.180646256 0.100840184
933800000 0.185719968 0.099966176
934400000 0.181961824 0.1142042
935000000 0.184064064 0.112648368
935600000 0.185099728 0.11828796
936200000 0.18783928 0.126981496
936800000 0.191125696 0.133508296
937400000 0.18721376 0.137211792
938000000 0.18419656 0.145462496
938600000 0.182666384 0.149757808
939200000 0.184103008 0.157138816
939800000 0.1884968 0.162497104
940400000 0.193069792 0.164022528
941000000 0.18939168 0.172301776
941600000 0.191527152 0.179434544
942200000 0.194569392 0.18220344
942800000 0.197384352 0.191074992
943400000 0.189200672 0.195811712
944000000 0.197268528 0.199575824
944600000 0.203152144 0.203491328
945200000 0.208594176 0.20301064
945800000 0.206410464 0.21644088
946400000 0.217259232 0.217539888
947000000 0.213697952 0.221461616
947600000 0.21112032 0.230847008
948200000 0.212677056 0.235383568
948800000 0.213401984 0.240149232
949400000 0.220846944 0.24176312
950000000 0.22337832 0.245031424
