# HZ S RI R 50
890000000 -0.032417764 -0.001521231
890600000 -0.025710292 -0.003893001
891200000 -0.029134138 -0.003784341
891800000 -0.023869852 -0.013752854
892400000 -0.02054938 -0.019501498
893000000 -0.02398704 -0.018788614
893600000 -0.019582132 -0.025986598
894200000 -0.019391838 -0.021352672
894800000 -0.017581648 -0.028610418
895400000 -0.01450656 -0.030830454
896000000 -0.010555004 -0.037940436
896600000 -0.010843924 -0.039807656
897200000 -0.003783521 -0.0421575
897800000 -0.002902005 -0.043502312
898400000 0.001010145 -0.046693404
899000000 0.006377247 -0.059409456
899600000 0.008566948 -0.063102132
900200000 0.015050254 -0.064844392
900800000 0.018910952 -0.066646212
901400000 0.013777196 -0.07754028
902000000 0.022472944 -0.086808696
902600000 0.022597528 -0.088762488
903200000 0.024964848 -0.09528252
903800000 0.021179212 -0.107924032
904400000 0.027480208 -0.116543112
905000000 0.027306074 -0.120710384
905600000 0.023510796 -0.13189644
906200000 0.045318648 -0.1377976
906800000 0.020679096 -0.139027792
907400000 0.019845262 -0.146231536
908000000 0.023566152 -0.15007664
908600000 0.027592794 -0.161486144
909200000 0.017883126 -0.165366672
909800000 0.022530408 -0.17701656
910400000 0.020756066 -0.179072528
911000000 0.015625476 -0.191272192
911600000 0.00768361 -0.199679888
912200000 0.009145536 -0.204778512
912800000 0.003915104 -0.209032112
913400000 -0.001982972 -0.221551408
914000000 -0.008203638 -0.227384112
914600000 -0.009428582 -0.226417504
915200000 -0.01627022 -0.237864512
915800000 -0.017427534 -0.242838592
916400000 -0.020395088 -0.25017256
917000000 -0.029995972 -0.259889696
917600000 -0.034739744 -0.261283152
918200000 -0.04091886 -0.266514384
918800000 -0.053881036 -0.271493952
919400000 -0.060425172 -0.277133472
920000000 -0.061419348 -0.27654528
920600000 -0.072759704 -0.284379392
921200000 -0.077957376 -0.285883136
921800000 -0.089333688 -0.285008832
922400000 -0.089224104 -0.285012032
923000000 -0.104423832 -0.28668656
923600000 -0.101728696 -0.29423904
924200000 -0.108976152 -0.293160704
924800000 -0.119024104 -0.294704416
925400000 -0.123104488 -0.292699136
926000000 -0.125118896 -0.29650128
926600000 -0.131817264 -0.301546784
927200000 -0.139299072 -0.30480608
927800000 -0.144410448 -0.301649952
928400000 -0.15575824 -0.302889536
929000000 -0.158865728 -0.302025184
929600000 -0.166507392 -0.304028992
930200000 -0.172202704 -0.305149216
930800000 -0.174913648 -0.307988032
931400000 -0.189364096 -0.31242832
932000000 -0.190705504 -0.308215904
932600000 -0.202404992 -0.315422144
933200000 -0.203469504 -0.312020288
933800000 -0.215363616 -0.313891456
934400000 -0.222628592 -0.309716864
935000000 -0.235345088 -0.31103184
935600000 -0.238028128 -0.314400544
936200000 -0.250039696 -0.313541856
936800000 -0.256164944 -0.309749312
937400000 -0.265649472 -0.304414208
938000000 -0.266824608 -0.303451168
938600000 -0.279918624 -0.30126208
939200000 -0.280615904 -0.29932176
939800000 -0.294040896 -0.29695712
940400000 -0.298710592 -0.293496928
941000000 -0.303603072 -0.290236608
941600000 -0.315588256 -0.2862696
942200000 -0.316341888 -0.2837536
942800000 -0.320982528 -0.280885472
943400000 -0.328110848 -0.276554304
944000000 -0.338849568 -0.274722304
944600000 -0.344566976 -0.268577888
945200000 -0.35182144 -0.270149088
945800000 -0.358541376 -0.265258128
946400000 -0.358863488 -0.252220272
947000000 -0.36937536 -0.254082496
947600000 -0.378317248 -0.247060224
948200000 -0.384096032 -0.247622768
948800000 -0.391562528 -0.237462128
949400000 -0.394037056 -0.229393872
950000000 -0.395505408 -0.229940432
