# HZ S RI R 50
890000000 -0.023744816 0.05277804
890600000 -0.013946004 0.058843216
891200000 -0.010120932 0.060249452
891800000 0.002936068 0.070768024
892400000 -0.003465847 0.076778352
893000000 0.002385206 0.080319424
893600000 0.013779986 0.08556496
894200000 0.013501274 0.092357624
894800000 0.01566168 0.091756168
895400000 0.027666036 0.104269176
896000000 0.031132174 0.108129672
896600000 0.03811118 0.110444504
897200000 0.037529364 0.114345608
897800000 0.046332052 0.119405872
898400000 0.05350954 0.121503216
899000000 0.052490424 0.120047288
899600000 0.061745564 0.127616304
900200000 0.060554068 0.129616392
900800000 0.067876 0.134743024
901400000 0.072142992 0.137520064
902000000 0.076375328 0.138266544
902600000 0.07871184 0.143752112
903200000 0.08493888 0.145746
903800000 0.093387072 0.148962976
904400000 0.090495288 0.15186288
905000000 0.102039952 0.152830752
905600000 0.100794048 0.160957008
906200000 0.135941504 0.1649248
906800000 0.11201836 0.162935968
907400000 0.115626808 0.167506496
908000000 0.12487172 0.17775592
908600000 0.132942944 0.181399824
909200000 0.139791904 0.173097312
909800000 0.144208544 0.18102088
910400000 0.15253792 0.18199
911000000 0.1647072 0.184538736
911600000 0.15865864 0.1922796
912200000 0.166796784 0.187226544
912800000 0.171204528 0.192169584
913400000 0.186048256 0.198454608
914000000 0.186920512 0.20147344
914600000 0.198676336 0.198128496
915200000 0.20193952 0.20326904
915800000 0.208500448 0.20035728
916400000 0.2173928 0.199841824
917000000 0.223159616 0.202048144
917600000 0.2267084 0.195156112
918200000 0.231057792 0.19699888
918800000 0.2365448 0.19703992
919400000 0.250118288 0.192751296
920000000 0.251895456 0.192628464
920600000 0.259458512 0.19866496
921200000 0.261600288 0.196377344
921800000 0.269732544 0.18978032
922400000 0.273100032 0.200757568
923000000 0.274547712 0.187232272
923600000 0.28224528 0.18614576
924200000 0.2858048 0.187526224
924800000 0.290934784 0.187637616
925400000 0.295229984 0.19327616
926000000 0.303301632 0.186752992
926600000 0.31111952 0.18343136
927200000 0.310417856 0.181837488
927800000 0.315438336 0.177628384
928400000 0.32066928 0.184164672
929000000 0.323800992 0.17944536
929600000 0.330059616 0.177542288
930200000 0.341588704 0.175168096
930800000 0.339991264 0.171563264
931400000 0.343525216 0.178910592
932000000 0.350980064 0.17336792
932600000 0.358943424 0.16974584
933200000 0.360631808 0.168682672
933800000 0.367940896 0.165203168
934400000 0.376548544 0.167285616
935000000 0.377824384 0.165634592
935600000 0.38147296 0.15978664
936200000 0.38730288 0.158750448
936800000 0.390727072 0.15111472
937400000 0.392869184 0.14998784
938000000 0.400528384 0.145092272
938600000 0.408122432 0.144001008
939200000 0.409706912 0.141560272
939800000 0.41050384 0.137206016
940400000 0.418236256 0.135986624
941000000 0.427762016 0.132848056
941600000 0.424677152 0.121849192
942200000 0.43084288 0.120259736
942800000 0.43197792 0.115753632
943400000 0.43816192 0.117959
944000000 0.4343992 0.111439544
944600000 0.442455392 0.112253944
945200000 0.447914688 0.106035352
945800000 0.455486848 0.1051224
946400000 0.455037344 0.087022312
947000000 0.460998816 0.09185376
947600000 0.463023648 0.090978848
948200000 0.469971744 0.087596184
948800000 0.466710592 0.081003936
949400000 0.469604832 0.077290408
950000000 0.47308368 0.079401216
