# HZ S RI R 50
890000000 0.027838576 0.050590892
890600000 0.0343757 0.052897728
891200000 0.042420868 0.050228792
891800000 0.05345146 0.047002992
892400000 0.056877196 0.042923332
893000000 0.063788228 0.037542656
893600000 0.076347912 0.036760496
894200000 0.08566452 0.033702292
894800000 0.089520544 0.018732144
895400000 0.100320088 0.022058558
896000000 0.106415952 0.01479573
896600000 0.109229704 0.006577859
897200000 0.11465348 0.000703624
897800000 0.123236424 -0.007914845
898400000 0.126089992 -0.016989996
899000000 0.129351664 -0.022761426
899600000 0.142708416 -0.03138367
900200000 0.138484176 -0.042549028
900800000 0.140982672 -0.04863374
901400000 0.142753936 -0.055073256
902000000 0.148348528 -0.064861624
902600000 0.147878464 -0.070520096
903200000 0.153143328 -0.07353672
903800000 0.154123552 -0.085951992
904400000 0.15528232 -0.08856816
905000000 0.15165288 -0.10184148
905600000 0.153825344 -0.109936128
906200000 0.131170016 -0.125126448
906800000 0.153311312 -0.119377368
907400000 0.151997008 -0.128925816
908000000 0.155784704 -0.140334048
908600000 0.158471248 -0.143585104
909200000 0.156529216 -0.146378752
909800000 0.157414448 -0.150431824
910400000 0.149428192 -0.162466816
911000000 0.15266592 -0.165140304
911600000 0.144813344 -0.173330608
912200000 0.14710384 -0.186383088
912800000 0.146537152 -0.183838368
913400000 0.149463904 -0.188599456
914000000 0.145349184 -0.197325776
914600000 0.141104096 -0.205131376
915200000 0.140956752 -0.207004032
915800000 0.139506944 -0.210792272
916400000 0.133101256 -0.21607696
917000000 0.134649984 -0.225098528
917600000 0.133121384 -0.232572496
918200000 0.1322024 -0.23239896
918800000 0.122356584 -0.235859344
919400000 0.12195852 -0.2405956
920000000 0.12078088 -0.249677152
920600000 0.115609032 -0.255384944
921200000 0.115257032 -0.250603072
921800000 0.110019888 -0.2610124
922400000 0.112927224 -0.259169872
923000000 0.09995516 -0.263875872
923600000 0.102716144 -0.267812848
924200000 0.099505648 -0.27331152
924800000 0.097746592 -0.274164064
925400000 0.092749792 -0.28439728
926000000 0.089449288 -0.285153824
926600000 0.086995248 -0.291293696
927200000 0.084070264 -0.294070976
927800000 0.083690432 -0.302471936
928400000 0.074250968 -0.306130304
929000000 0.079541464 -0.310797952
929600000 0.069863728 -0.311013632
930200000 0.068390312 -0.313175424
930800000 0.064033388 -0.317817504
931400000 0.062137664 -0.320215712
932000000 0.055297292 -0.329525856
932600000 0.050541504 -0.333860768
933200000 0.0448064 -0.330735392
933800000 0.047601012 -0.333497152
934400000 0.034297284 -0.343174816
935000000 0.029854264 -0.339677472
935600000 0.032799672 -0.345369504
936200000 0.023679168 -0.347196192
936800000 0.02336167 -0.351350336
937400000 0.01735413 -0.35365696
938000000 0.013650154 -0.360783392
938600000 0.007632866 -0.358863616
939200000 0.007027007 -0.364268256
939800000 -0.000158549 -0.371202944
940400000 -0.004766607 -0.372345984
941000000 -0.011962766 -0.37231088
941600000 -0.018179358 -0.377273408
942200000 -0.021805764 -0.385196672
942800000 -0.022203958 -0.383172608
943400000 -0.033028216 -0.38617376
944000000 -0.038051528 -0.382467648
944600000 -0.044297744 -0.38901568
945200000 -0.04655358 -0.395064096
945800000 -0.04871332 -0.393324512
946400000 -0.063391352 -0.397370144
947000000 -0.062837892 -0.393343552
947600000 -0.075377128 -0.394537088
948200000 -0.075360912 -0.39675936
948800000 -0.08657552 -0.398082144
949400000 -0.093558504 -0.397380192
950000000 -0.101175424 -0.39522336
