# HZ S RI R 50
890000000 -0.570376128 0.146680912
890600000 -0.575352192 0.149450576
891200000 -0.572864384 0.15711624
891800000 -0.58165216 0.1569256
892400000 -0.575617216 0.171290896
893000000 -0.583388032 0.171926688
893600000 -0.579791616 0.175239344
894200000 -0.583219328 0.181718864
894800000 -0.589527232 0.183906528
895400000 -0.586658688 0.193061392
896000000 -0.591685056 0.195912224
896600000 -0.595056128 0.20043584
897200000 -0.593391872 0.209878288
897800000 -0.593775872 0.210804
898400000 -0.598732928 0.219215408
899000000 -0.595360192 0.221531536
899600000 -0.60156928 0.230326896
900200000 -0.59761344 0.23656576
900800000 -0.600964864 0.238051568
901400000 -0.604280192 0.243141904
902000000 -0.604982784 0.248755952
902600000 -0.605693952 0.257521872
903200000 -0.600807872 0.264159776
903800000 -0.602775296 0.264763024
904400000 -0.603946112 0.275464352
905000000 -0.60078944 0.278193632
905600000 -0.6042656 0.282502336
906200000 -0.641950592 0.28749776
906800000 -0.600859648 0.289665664
907400000 -0.602208576 0.298644992
908000000 -0.606608896 0.300851392
908600000 -0.608149056 0.31229168
909200000 -0.60895232 0.309946176
909800000 -0.608102208 0.310669984
910400000 -0.609347136 0.326330528
911000000 -0.611605248 0.342061408
911600000 -0.605183808 0.342833696
912200000 -0.611399744 0.343647584
912800000 -0.605091456 0.347364064
913400000 -0.60445344 0.34756304
914000000 -0.601802624 0.35765984
914600000 -0.60327104 0.360257024
915200000 -0.601773056 0.368608192
915800000 -0.600745408 0.371948608
916400000 -0.602079488 0.373806912
917000000 -0.600656896 0.3803072
917600000 -0.598372608 0.38225008
918200000 -0.597933248 0.392179456
918800000 -0.602112384 0.396515936
919400000 -0.602214848 0.396870912
920000000 -0.595644672 0.40408112
920600000 -0.595782336 0.410430816
921200000 -0.590637696 0.414771072
921800000 -0.591198144 0.421157792
922400000 -0.577928576 0.420696512
923000000 -0.595347328 0.433227552
923600000 -0.589277184 0.433999712
924200000 -0.581333312 0.4318048
924800000 -0.58530912 0.440717248
925400000 -0.579363264 0.440462208
926000000 -0.580192512 0.447212416
926600000 -0.577600256 0.455494144
927200000 -0.579977088 0.458618528
927800000 -0.572631936 0.466164224
928400000 -0.577452352 0.46846432
929000000 -0.573894144 0.469170848
929600000 -0.57450528 0.477316064
930200000 -0.570837248 0.4847792
930800000 -0.570971392 0.485052768
931400000 -0.561887232 0.489188
932000000 -0.560758336 0.500078016
932600000 -0.563061376 0.501134208
933200000 -0.560183232 0.506409056
933800000 -0.564438784 0.511509472
934400000 -0.55834976 0.515206624
935000000 -0.551527296 0.518856512
935600000 -0.561319168 0.522581824
936200000 -0.551328256 0.52658944
936800000 -0.552048576 0.52961744
937400000 -0.545628544 0.532197536
938000000 -0.54684064 0.540279488
938600000 -0.544494784 0.542920832
939200000 -0.539407552 0.545110912
939800000 -0.53406768 0.549833024
940400000 -0.530619456 0.553891712
941000000 -0.529488032 0.553785216
941600000 -0.529545664 0.556148288
942200000 -0.519997952 0.566980032
942800000 -0.521899936 0.565610816
943400000 -0.519770816 0.570433088
944000000 -0.519471104 0.577340544
944600000 -0.51454704 0.581761152
945200000 -0.515216224 0.578300992
945800000 -0.509843232 0.589273664
946400000 -0.50901712 0.599573888
947000000 -0.50165712 0.595000064
947600000 -0.50031584 0.594401984
948200000 -0.495787616 0.601849536
948800000 -0.497667584 0.602788736
949400000 -0.490401376 0.603356032
950000000 -0.494061664 0.607196544
