# HZ S RI R 50
890000000 -0.415045984 0.186486
890600000 -0.418499584 0.191089936
891200000 -0.42622624 0.190762432
891800000 -0.434483776 0.192901056
892400000 -0.430997312 0.19190112
893000000 -0.428825216 0.196054928
893600000 -0.436658528 0.198970224
894200000 -0.438416 0.199845424
894800000 -0.440131424 0.20399408
895400000 -0.439112704 0.201872512
896000000 -0.438404896 0.204169936
896600000 -0.443154656 0.205196512
897200000 -0.440402752 0.21125192
897800000 -0.44681488 0.214114368
898400000 -0.443790528 0.21445
899000000 -0.451047392 0.219056144
899600000 -0.451468512 0.220367088
900200000 -0.455269792 0.222833232
900800000 -0.455019904 0.220011232
901400000 -0.455734752 0.219963264
902000000 -0.459692608 0.225753216
902600000 -0.463648096 0.225470416
903200000 -0.464188256 0.22677768
903800000 -0.461096896 0.229952144
904400000 -0.467881184 0.237861808
905000000 -0.467013088 0.24063088
905600000 -0.473591744 0.23907208
906200000 -0.454145984 0.262910992
906800000 -0.471383968 0.246541808
907400000 -0.47115424 0.252790752
908000000 -0.475757984 0.25827008
908600000 -0.481044416 0.257271296
909200000 -0.485018208 0.246402176
909800000 -0.482514784 0.258774336
910400000 -0.483172032 0.259877568
911000000 -0.48453488 0.256806496
911600000 -0.487278368 0.264469616
912200000 -0.484731104 0.270004704
912800000 -0.49425328 0.27583056
913400000 -0.492874368 0.27807936
914000000 -0.492086176 0.280913152
914600000 -0.499970528 0.282440224
915200000 -0.496978464 0.28456288
915800000 -0.505188928 0.287388256
916400000 -0.5005296 0.291320608
917000000 -0.500274784 0.294604864
917600000 -0.508846048 0.299820832
918200000 -0.507966336 0.306304928
918800000 -0.511503872 0.30857696
919400000 -0.513638848 0.313194336
920000000 -0.511879616 0.312900704
920600000 -0.515520992 0.314625056
921200000 -0.517275872 0.32005632
921800000 -0.514798112 0.327493504
922400000 -0.523468544 0.330048928
923000000 -0.519547648 0.339850624
923600000 -0.51794528 0.3416992
924200000 -0.522632672 0.342685184
924800000 -0.519035648 0.351091136
925400000 -0.520850944 0.345777376
926000000 -0.522236352 0.35809888
926600000 -0.52162896 0.36021952
927200000 -0.520759456 0.366408672
927800000 -0.523705248 0.368098624
928400000 -0.520460672 0.376192288
929000000 -0.520138272 0.376956768
929600000 -0.52287488 0.377276
930200000 -0.522079104 0.385350176
930800000 -0.52738624 0.39106976
931400000 -0.523212128 0.394604192
932000000 -0.53164816 0.394111904
932600000 -0.524624704 0.399451168
933200000 -0.5225544 0.40337904
933800000 -0.526012288 0.412
934400000 -0.5233776 0.412933664
935000000 -0.526276576 0.41422656
935600000 -0.5261336 0.424591616
936200000 -0.52121264 0.423706688
936800000 -0.519524512 0.427158176
937400000 -0.525408032 0.432316384
938000000 -0.524991808 0.437195328
938600000 -0.5255528 0.441444256
939200000 -0.521278144 0.44003312
939800000 -0.522622592 0.448848064
940400000 -0.518141216 0.45225184
941000000 -0.52444832 0.457805376
941600000 -0.52113104 0.458116896
942200000 -0.519184224 0.462775552
942800000 -0.523144 0.468852832
943400000 -0.520493024 0.470181536
944000000 -0.517280224 0.47207312
944600000 -0.513704352 0.481575488
945200000 -0.516994368 0.483448928
945800000 -0.519832 0.489046464
946400000 -0.515755648 0.486282976
947000000 -0.51123184 0.500853536
947600000 -0.5116648 0.502045216
948200000 -0.515256768 0.505136832
948800000 -0.508804384 0.51112288
949400000 -0.514039872 0.515507648
950000000 -0.506380864 0.521101056
