# HZ S RI R 50
890000000 0.110286736 0.360405312
890600000 0.11753812 0.347969984
891200000 0.121235368 0.34530064
891800000 0.126795216 0.340395264
892400000 0.132126896 0.328089056
893000000 0.138831248 0.317306528
893600000 0.145316928 0.309850976
894200000 0.14504336 0.304423648
894800000 0.1496032 0.29059072
895400000 0.155961072 0.281835712
896000000 0.151314272 0.271447936
896600000 0.161618464 0.260450512
897200000 0.160108672 0.25414256
897800000 0.163038832 0.238095424
898400000 0.1701244 0.231535168
899000000 0.167093536 0.222416016
899600000 0.16524584 0.208533312
900200000 0.170134 0.200202768
900800000 0.167533248 0.191320992
901400000 0.16827528 0.182084992
902000000 0.169837024 0.175005424
902600000 0.1705484 0.165816016
903200000 0.173808096 0.15450184
903800000 0.168481008 0.147428928
904400000 0.171590992 0.13589976
905000000 0.16880936 0.121992984
905600000 0.166219696 0.113744168
906200000 0.145407584 0.128483144
906800000 0.15846928 0.096959528
907400000 0.159290736 0.082439208
908000000 0.153434768 0.080121104
908600000 0.150509104 0.066361324
909200000 0.151778672 0.06028308
909800000 0.14212576 0.049220508
910400000 0.141310752 0.042261256
911000000 0.140249328 0.043099488
911600000 0.134448688 0.020709502
912200000 0.12640388 0.018582044
912800000 0.121507296 0.011926124
913400000 0.113452272 3.4569e-05
914000000 0.114418184 -0.006480313
914600000 0.113188064 -0.015781406
915200000 0.1044208 -0.019756988
915800000 0.09523088 -0.024960984
916400000 0.094034808 -0.03639244
917000000 0.085874456 -0.043352316
917600000 0.080031264 -0.0467464
918200000 0.06741532 -0.05778404
918800000 0.069698312 -0.06150036
919400000 0.06343268 -0.071982312
920000000 0.056122988 -0.07705672
920600000 0.053404384 -0.0820872
921200000 0.04264316 -0.08679636
921800000 0.043329148 -0.093075368
922400000 0.029950464 -0.102496912
923000000 0.02343754 -0.113026168
923600000 0.019654106 -0.114297304
924200000 0.008712828 -0.11646696
924800000 -0.0007698 -0.12564832
925400000 -0.002253453 -0.131190896
926000000 -0.016012546 -0.141331568
926600000 -0.027951414 -0.14039304
927200000 -0.033320058 -0.153429936
927800000 -0.042521432 -0.150441872
928400000 -0.05320924 -0.15869184
929000000 -0.059893224 -0.16113424
929600000 -0.07082272 -0.162833552
930200000 -0.087415488 -0.168590912
930800000 -0.09376932 -0.173987296
931400000 -0.108667792 -0.180031232
932000000 -0.119516008 -0.179560208
932600000 -0.128268304 -0.173057648
933200000 -0.14409864 -0.181207616
933800000 -0.14889944 -0.18345736
934400000 -0.164326368 -0.180814704
935000000 -0.174692912 -0.178208112
935600000 -0.1854252 -0.1824432
936200000 -0.200344608 -0.178068576
936800000 -0.209647456 -0.18271496
937400000 -0.217837808 -0.180439776
938000000 -0.233592432 -0.16993976
938600000 -0.245364144 -0.176232704
939200000 -0.252401648 -0.169081056
939800000 -0.264592944 -0.165037344
940400000 -0.280700032 -0.161302368
941000000 -0.291479008 -0.158238736
941600000 -0.300328096 -0.153851632
942200000 -0.304912224 -0.141924704
942800000 -0.312365632 -0.1384872
943400000 -0.325413728 -0.132729112
944000000 -0.335343104 -0.126101536
944600000 -0.341271456 -0.123644264
945200000 -0.346319968 -0.11219356
945800000 -0.351527328 -0.104984664
946400000 -0.36297712 -0.094561928
947000000 -0.36457616 -0.093966288
947600000 -0.377434944 -0.085613336
948200000 -0.38082944 -0.083997432
948800000 -0.38932592 -0.069517784
949400000 -0.39135616 -0.062876432
950000000 -0.400259008 -0.055080296
