# HZ S RI R 50
890000000 0.1065658 0.373900064
890600000 0.118886416 0.371307776
891200000 0.118464912 0.363277824
891800000 0.117123872 0.351604512
892400000 0.12674992 0.34135968
893000000 0.134617744 0.343636704
893600000 0.13652448 0.330651584
894200000 0.146021136 0.324098208
894800000 0.147102464 0.314077024
895400000 0.149315984 0.30102848
896000000 0.160045392 0.292356544
896600000 0.155676944 0.280798304
897200000 0.16202936 0.26939504
897800000 0.164439552 0.265660944
898400000 0.168829568 0.256450768
899000000 0.165313648 0.240775536
899600000 0.170084096 0.239008976
900200000 0.17217976 0.223899488
900800000 0.1759068 0.211021536
901400000 0.17776264 0.203179648
902000000 0.180819232 0.19784672
902600000 0.181876752 0.190781792
903200000 0.18423192 0.174876896
903800000 0.183277024 0.165175504
904400000 0.178931664 0.1566636
905000000 0.178743856 0.1434444
905600000 0.181106768 0.135718288
906200000 0.2080156 0.131868768
906800000 0.174443104 0.112910608
907400000 0.167942816 0.098338784
908000000 0.17327008 0.093654776
908600000 0.171648944 0.078501152
909200000 0.166751936 0.07139464
909800000 0.159764752 0.055386324
910400000 0.159103824 0.049136924
911000000 0.151576464 0.046350396
911600000 0.149117968 0.038382484
912200000 0.135254736 0.024529946
912800000 0.130267856 0.015870336
913400000 0.130136448 0.006342438
914000000 0.131989512 0.001562335
914600000 0.116558624 -0.002551458
915200000 0.117351144 -0.010829216
915800000 0.109485944 -0.019054292
916400000 0.109238344 -0.02224756
917000000 0.099355352 -0.032750942
917600000 0.095697424 -0.045056844
918200000 0.091868312 -0.049129084
918800000 0.084512552 -0.049443616
919400000 0.074474696 -0.0551152
920000000 0.072886256 -0.066754892
920600000 0.071947824 -0.074773256
921200000 0.064146712 -0.07719748
921800000 0.053949132 -0.083894576
922400000 0.05022086 -0.087597624
923000000 0.041136396 -0.096234656
923600000 0.037601456 -0.103438016
924200000 0.029243752 -0.114986032
924800000 0.019521986 -0.114349248
925400000 0.013242308 -0.128642736
926000000 0.001247147 -0.136042624
926600000 -0.00137279 -0.139377904
927200000 -0.01382192 -0.141442576
927800000 -0.024717158 -0.147963136
928400000 -0.034439268 -0.159864608
929000000 -0.044624572 -0.164699232
929600000 -0.052030284 -0.158127808
930200000 -0.062497484 -0.171757248
930800000 -0.0788828 -0.178557408
931400000 -0.08500048 -0.175050336
932000000 -0.10514476 -0.178707216
932600000 -0.106687728 -0.181573072
933200000 -0.12248256 -0.185648416
933800000 -0.1317444 -0.181483552
934400000 -0.145100384 -0.179874048
935000000 -0.1605988 -0.18387968
935600000 -0.168414064 -0.185841808
936200000 -0.173872928 -0.181946624
936800000 -0.193462544 -0.18289448
937400000 -0.203048128 -0.181095056
938000000 -0.210648688 -0.182716736
938600000 -0.227727728 -0.179939632
939200000 -0.234388384 -0.174858288
939800000 -0.246518496 -0.17062864
940400000 -0.26104736 -0.16472432
941000000 -0.269543488 -0.167524
941600000 -0.277515456 -0.1604304
942200000 -0.29263312 -0.157203264
942800000 -0.297422144 -0.147951408
943400000 -0.311926848 -0.136536432
944000000 -0.32010608 -0.130634008
944600000 -0.325960256 -0.134713088
945200000 -0.332794048 -0.119296872
945800000 -0.341425696 -0.11975684
946400000 -0.352371328 -0.112480392
947000000 -0.35822288 -0.103001208
947600000 -0.363793152 -0.094408328
948200000 -0.370209824 -0.092797648
948800000 -0.375382048 -0.083126912
949400000 -0.383268384 -0.07880624
950000000 -0.38656128 -0.071096392
