# HZ S RI R 50
890000000 0.11664568 0.349209024
890600000 0.11748876 0.342368064
891200000 0.129182976 0.336978112
891800000 0.139887376 0.328485376
892400000 0.131087752 0.316947744
893000000 0.139924992 0.309149888
893600000 0.141250832 0.296368256
894200000 0.147765984 0.288550272
894800000 0.146767104 0.280786208
895400000 0.150788928 0.271463744
896000000 0.152486 0.259735312
896600000 0.15185696 0.251526624
897200000 0.158415552 0.239170544
897800000 0.156761984 0.22864872
898400000 0.161478224 0.226866576
899000000 0.164295376 0.215571424
899600000 0.17008264 0.204682352
900200000 0.161779664 0.194138256
900800000 0.167283408 0.189269088
901400000 0.164245184 0.178969936
902000000 0.1639708 0.165154704
902600000 0.164240096 0.157550016
903200000 0.16824736 0.145522928
903800000 0.1698168 0.141615328
904400000 0.168334576 0.134164872
905000000 0.16806896 0.12328228
905600000 0.161440192 0.107709048
906200000 0.139805824 0.110109256
906800000 0.154204048 0.092575504
907400000 0.156424928 0.071868568
908000000 0.154677008 0.061943736
908600000 0.14812192 0.059090368
909200000 0.144658096 0.045126784
909800000 0.141477408 0.035329496
910400000 0.13935528 0.027663866
911000000 0.140841984 0.014847552
911600000 0.125507144 0.013656526
912200000 0.11826016 0.003067551
912800000 0.115780648 -0.004702553
913400000 0.105926984 -0.009655242
914000000 0.101376944 -0.020282786
914600000 0.096277976 -0.028342612
915200000 0.087865016 -0.036431828
915800000 0.089861784 -0.035467584
916400000 0.079184472 -0.044075888
917000000 0.067795656 -0.051779912
917600000 0.071260344 -0.060837008
918200000 0.05687288 -0.066898248
918800000 0.054967468 -0.069553192
919400000 0.043276104 -0.070885344
920000000 0.040913748 -0.080713472
920600000 0.039418012 -0.08367836
921200000 0.028127262 -0.088210872
921800000 0.0221306 -0.092763976
922400000 0.017109324 -0.0996412
923000000 0.008412274 -0.106608496
923600000 0.001727583 -0.113683664
924200000 -0.002097327 -0.113386976
924800000 -0.00790844 -0.125197784
925400000 -0.017409564 -0.124295504
926000000 -0.028592654 -0.131139952
926600000 -0.030961116 -0.137791728
927200000 -0.04225014 -0.141471408
927800000 -0.052486056 -0.148366608
928400000 -0.061365104 -0.156237088
929000000 -0.07372028 -0.160143776
929600000 -0.083770712 -0.167097808
930200000 -0.090341392 -0.16967144
930800000 -0.105180936 -0.172308848
931400000 -0.114242968 -0.172378352
932000000 -0.121870432 -0.181724944
932600000 -0.140342592 -0.180308528
933200000 -0.14866568 -0.182371072
933800000 -0.1609992 -0.181090112
934400000 -0.174146048 -0.178720416
935000000 -0.186508576 -0.179233072
935600000 -0.192594976 -0.177476192
936200000 -0.206491184 -0.182063264
936800000 -0.216569952 -0.175385424
937400000 -0.229599952 -0.179917648
938000000 -0.240107568 -0.17226368
938600000 -0.251889104 -0.171839552
939200000 -0.262385344 -0.166892032
939800000 -0.274550208 -0.158666544
940400000 -0.287290304 -0.16047088
941000000 -0.294126496 -0.14873056
941600000 -0.306598848 -0.146100752
942200000 -0.315456576 -0.137943552
942800000 -0.3203128 -0.137209152
943400000 -0.334183776 -0.125656128
944000000 -0.3430912 -0.126920224
944600000 -0.348515232 -0.112766208
945200000 -0.3553504 -0.109815216
945800000 -0.367316128 -0.103768056
946400000 -0.367669024 -0.099368856
947000000 -0.379329472 -0.092233472
947600000 -0.38363392 -0.08183616
948200000 -0.384653376 -0.076064584
948800000 -0.398084928 -0.069878384
949400000 -0.397352448 -0.062037324
950000000 -0.403872864 -0.05732418
