# HZ S RI R 50
890000000 -0.334397312 0.588221632
890600000 -0.33552496 0.587258176
891200000 -0.330457344 0.591249216
891800000 -0.337717408 0.590040704
892400000 -0.320520608 0.590550656
893000000 -0.323336576 0.59063616
893600000 -0.318178368 0.59214464
894200000 -0.31113712 0.589587712
894800000 -0.308304096 0.592476864
895400000 -0.30727696 0.592115712
896000000 -0.300714656 0.58681984
896600000 -0.299764096 0.591116864
897200000 -0.297281312 0.588679936
897800000 -0.287875936 0.59360352
898400000 -0.285283136 0.590351872
899000000 -0.284627392 0.587855424
899600000 -0.284922752 0.590053504
900200000 -0.280203296 0.59464256
900800000 -0.27241584 0.592082944
901400000 -0.273867904 0.59372576
902000000 -0.275908032 0.59116896
902600000 -0.271761664 0.591341056
903200000 -0.268863264 0.596469376
903800000 -0.265512592 0.593620928
904400000 -0.264404512 0.59581568
905000000 -0.261238096 0.592298112
905600000 -0.25047592 0.596051008
906200000 -0.245190928 0.58954848
906800000 -0.246633904 0.60184192
907400000 -0.248314448 0.596350912
908000000 -0.237961984 0.59773984
908600000 -0.239751856 0.598723648
909200000 -0.232811712 0.601116032
909800000 -0.234794448 0.59761792
910400000 -0.227980992 0.599192448
911000000 -0.229863616 0.606363072
911600000 -0.232888976 0.607507968
912200000 -0.226131104 0.60010304
912800000 -0.217277728 0.608667904
913400000 -0.217392256 0.609609856
914000000 -0.2159248 0.604977536
914600000 -0.214663632 0.610056064
915200000 -0.212550096 0.609363008
915800000 -0.203822512 0.609731136
916400000 -0.209124496 0.616136064
917000000 -0.20112048 0.619759232
917600000 -0.200679776 0.615972096
918200000 -0.19829464 0.614936832
918800000 -0.1941984 0.625287552
919400000 -0.195289072 0.623363328
920000000 -0.192828144 0.624818496
920600000 -0.185806976 0.620135232
921200000 -0.178488912 0.625821312
921800000 -0.181204016 0.628534848
922400000 -0.17508736 0.633154048
923000000 -0.173496816 0.635019584
923600000 -0.16452528 0.636615936
924200000 -0.160974512 0.634332864
924800000 -0.162836896 0.634708224
925400000 -0.154214896 0.645239296
926000000 -0.14882072 0.640578688
926600000 -0.151031056 0.646874304
927200000 -0.143695904 0.642511424
927800000 -0.137782976 0.644478848
928400000 -0.13763576 0.650952384
929000000 -0.1287712 0.649717568
929600000 -0.130508792 0.648027392
930200000 -0.118364168 0.651788672
930800000 -0.11840212 0.647881152
931400000 -0.115537768 0.65390624
932000000 -0.107218288 0.649630848
932600000 -0.106660368 0.649739904
933200000 -0.10027868 0.652293376
933800000 -0.0901836 0.660368576
934400000 -0.08884548 0.662447424
935000000 -0.088444504 0.663749952
935600000 -0.083164024 0.657133376
936200000 -0.075961608 0.66166176
936800000 -0.074441168 0.66109216
937400000 -0.065245888 0.666020096
938000000 -0.058115324 0.663840256
938600000 -0.059345744 0.656645504
939200000 -0.054778672 0.663516736
939800000 -0.042502588 0.667591616
940400000 -0.046825056 0.658403584
941000000 -0.032673918 0.66944608
941600000 -0.035646896 0.664391616
942200000 -0.020829332 0.666904128
942800000 -0.023642274 0.661151616
943400000 -0.010049582 0.66699168
944000000 -0.013822574 0.662761408
944600000 -0.003957152 0.66514048
945200000 0.000690467 0.658258496
945800000 0.011709142 0.665379264
946400000 0.00864889 0.666554304
947000000 0.012369144 0.66626208
947600000 0.019110552 0.662659392
948200000 0.025010452 0.665697472
948800000 0.032835786 0.660873856
949400000 0.03066572 0.662735424
950000000 0.040314584 0.663400064
