# HZ S RI R 50
890000000 -0.318371968 0.61115136
890600000 -0.32056992 0.610948416
891200000 -0.316057952 0.608638656
891800000 -0.312393984 0.612824896
892400000 -0.304623488 0.610709952
893000000 -0.3022912 0.614448064
893600000 -0.298687392 0.610481664
894200000 -0.289701792 0.614047552
894800000 -0.286940256 0.618848064
895400000 -0.289844896 0.614824576
896000000 -0.282346784 0.617721536
896600000 -0.277547136 0.610675264
897200000 -0.277969216 0.616594624
897800000 -0.270794656 0.615115584
898400000 -0.270277568 0.610192832
899000000 -0.2645692 0.611684672
899600000 -0.262197728 0.614409216
900200000 -0.260623632 0.618060224
900800000 -0.253178448 0.616110976
901400000 -0.251867776 0.615927744
902000000 -0.24797168 0.620008192
902600000 -0.247394096 0.616343808
903200000 -0.249027424 0.615582464
903800000 -0.242174576 0.622481856
904400000 -0.240099984 0.616778688
905000000 -0.23354424 0.621537792
905600000 -0.230635504 0.623773824
906200000 -0.228891744 0.615716032
906800000 -0.230706752 0.620745472
907400000 -0.221170864 0.621604864
908000000 -0.22644192 0.627815168
908600000 -0.219431648 0.626784576
909200000 -0.21377616 0.626155904
909800000 -0.214556592 0.627281088
910400000 -0.21338752 0.630618304
911000000 -0.204736608 0.628645888
911600000 -0.201972304 0.634105216
912200000 -0.19882632 0.633379904
912800000 -0.190776544 0.637074624
913400000 -0.19455584 0.638745088
914000000 -0.1921992 0.636954368
914600000 -0.18267696 0.641950912
915200000 -0.181194848 0.63930528
915800000 -0.171983072 0.645957312
916400000 -0.171564656 0.64242112
917000000 -0.171352048 0.64476928
917600000 -0.167345888 0.650438464
918200000 -0.15752464 0.648770304
918800000 -0.15474792 0.64736224
919400000 -0.150545296 0.650981952
920000000 -0.152410592 0.65403232
920600000 -0.1462996 0.647891776
921200000 -0.140700832 0.650742144
921800000 -0.138036528 0.650961472
922400000 -0.1357356 0.656948416
923000000 -0.131041944 0.660072896
923600000 -0.124873696 0.655034752
924200000 -0.121058944 0.656672
924800000 -0.119848952 0.663682624
925400000 -0.109131576 0.662908928
926000000 -0.103293336 0.65801152
926600000 -0.105751336 0.658509376
927200000 -0.0952924 0.65477184
927800000 -0.093104 0.660954368
928400000 -0.08800244 0.662846336
929000000 -0.087251152 0.660063744
929600000 -0.080288872 0.657129088
930200000 -0.075132408 0.663208256
930800000 -0.069164208 0.657335808
931400000 -0.066151916 0.658951552
932000000 -0.070794096 0.66367264
932600000 -0.060342856 0.660908352
933200000 -0.055965184 0.668961344
933800000 -0.055225252 0.66180864
934400000 -0.045635788 0.662751232
935000000 -0.041650144 0.661243904
935600000 -0.037079024 0.667375616
936200000 -0.032876052 0.668638528
936800000 -0.034541932 0.666558016
937400000 -0.024550206 0.670024064
938000000 -0.01829803 0.66772768
938600000 -0.017505636 0.660438208
939200000 -0.009353856 0.665487872
939800000 -0.01211995 0.66938464
940400000 -0.000860129 0.659596416
941000000 0.001460237 0.666790976
941600000 0.007018176 0.668546112
942200000 0.012035004 0.667050688
942800000 0.017685148 0.665271872
943400000 0.021775214 0.665961728
944000000 0.025710788 0.661008832
944600000 0.034589408 0.662701696
945200000 0.032672826 0.66201952
945800000 0.043675748 0.664579264
946400000 0.043890728 0.662004352
947000000 0.047535824 0.66373344
947600000 0.053618376 0.654668032
948200000 0.058354624 0.662049536
948800000 0.06805356 0.66034848
949400000 0.071857672 0.65321344
950000000 0.07873136 0.657617728
