# HZ S RI R 50
890000000 0.269211328 0.007617417
890600000 0.257828384 0.001403573
891200000 0.264038832 0.009344038
891800000 0.25525976 0.006999773
892400000 0.241624496 0.011955614
893000000 0.239102784 0.018216724
893600000 0.236336864 0.016138724
894200000 0.223742464 0.019644132
894800000 0.227875824 0.027398236
895400000 0.21829688 0.02325218
896000000 0.20653328 0.03154017
896600000 0.198768336 0.02679068
897200000 0.196544304 0.037234228
897800000 0.188512064 0.040256152
898400000 0.183674416 0.039337232
899000000 0.1772188 0.047165296
899600000 0.168980032 0.04848094
900200000 0.166111568 0.057004312
900800000 0.168706464 0.059319104
901400000 0.154999584 0.060469844
902000000 0.156199776 0.067739624
902600000 0.152400912 0.070013352
903200000 0.148351296 0.082115912
903800000 0.137092032 0.082592608
904400000 0.132788632 0.086292016
905000000 0.135134928 0.093911912
905600000 0.130552944 0.102294616
906200000 0.119258136 0.12039004
906800000 0.12105072 0.103902896
907400000 0.120579432 0.105479672
908000000 0.125400248 0.119502472
908600000 0.1139648 0.125455992
909200000 0.1128664 0.119735944
909800000 0.109853264 0.134232496
910400000 0.112981072 0.129984352
911000000 0.104242168 0.137111616
911600000 0.10014804 0.143260256
912200000 0.096008112 0.146721008
912800000 0.089456888 0.1465788
913400000 0.08765296 0.154194144
914000000 0.083177536 0.158157744
914600000 0.08439808 0.164520432
915200000 0.087145064 0.173012816
915800000 0.08413312 0.178218624
916400000 0.077697536 0.188365312
917000000 0.080350656 0.186324864
917600000 0.072512888 0.195068032
918200000 0.070308192 0.199169072
918800000 0.070447176 0.204817968
919400000 0.070674304 0.214221584
920000000 0.07283264 0.214214944
920600000 0.07277468 0.221420624
921200000 0.0680666 0.226031552
921800000 0.063197212 0.230158928
922400000 0.0724112 0.237052704
923000000 0.0724126 0.24178936
923600000 0.068321888 0.249308256
924200000 0.065973932 0.247536256
924800000 0.069769408 0.254283808
925400000 0.065655148 0.258126384
926000000 0.06498622 0.262971968
926600000 0.05843184 0.269628608
927200000 0.058152896 0.276607744
927800000 0.062875232 0.284166752
928400000 0.063724668 0.285440928
929000000 0.05993186 0.291697024
929600000 0.056620908 0.302096384
930200000 0.063287476 0.305188224
930800000 0.061916804 0.309594816
931400000 0.057920372 0.312631552
932000000 0.059261956 0.327875296
932600000 0.061471444 0.330734016
933200000 0.06943108 0.336559424
933800000 0.068275328 0.341309376
934400000 0.065847388 0.34513488
935000000 0.07075744 0.352127744
935600000 0.07430488 0.361134592
936200000 0.071947504 0.369315584
936800000 0.075799712 0.36866272
937400000 0.079593936 0.378525056
938000000 0.082214768 0.378146752
938600000 0.078792704 0.38694096
939200000 0.080294448 0.390991232
939800000 0.087811344 0.394013152
940400000 0.089101104 0.40080512
941000000 0.089836344 0.407467648
941600000 0.092882144 0.412844896
942200000 0.097160728 0.41181968
942800000 0.098171792 0.423062688
943400000 0.101148768 0.42907472
944000000 0.107484392 0.434754528
944600000 0.113551536 0.438640512
945200000 0.116448704 0.445026016
945800000 0.119303696 0.447092096
946400000 0.121783384 0.451664352
947000000 0.131082032 0.456795968
947600000 0.133373824 0.457586304
948200000 0.141059648 0.457291232
948800000 0.145273216 0.466982976
949400000 0.145575376 0.46874976
950000000 0.147724144 0.475165216
