# HZ S RI R 50
890000000 0.178283376 -0.160724592
890600000 0.186068336 -0.159124112
891200000 0.18195936 -0.15500192
891800000 0.178868352 -0.143349776
892400000 0.18989376 -0.150575904
893000000 0.193310288 -0.146151232
893600000 0.194161232 -0.14133176
894200000 0.190822304 -0.13894216
894800000 0.196680368 -0.139657472
895400000 0.200036336 -0.132784072
896000000 0.19980488 -0.124018808
896600000 0.202754128 -0.121629752
897200000 0.204933328 -0.124149224
897800000 0.211633328 -0.116672984
898400000 0.214180064 -0.116287984
899000000 0.21182 -0.112435792
899600000 0.21828752 -0.111590728
900200000 0.221822576 -0.106557976
900800000 0.224632736 -0.102093632
901400000 0.227357392 -0.100687664
902000000 0.232633216 -0.099172976
902600000 0.236192816 -0.096654248
903200000 0.239402784 -0.088833312
903800000 0.23750648 -0.09091812
904400000 0.24432816 -0.091192088
905000000 0.24655312 -0.091544488
905600000 0.251720256 -0.080356368
906200000 0.27766256 -0.058956052
906800000 0.260746176 -0.08025892
907400000 0.260429408 -0.084968832
908000000 0.26533696 -0.079013672
908600000 0.267017248 -0.074868592
909200000 0.272749472 -0.072655736
909800000 0.283040736 -0.077261328
910400000 0.276115104 -0.071649976
911000000 0.280327424 -0.082005512
911600000 0.290238336 -0.071907016
912200000 0.288044384 -0.059174348
912800000 0.291352448 -0.0684638
913400000 0.293770336 -0.060527608
914000000 0.298713472 -0.0575361
914600000 0.306393984 -0.061652348
915200000 0.311894464 -0.062759636
915800000 0.307565728 -0.059568736
916400000 0.314670688 -0.054151656
917000000 0.321997824 -0.057518656
917600000 0.316551328 -0.058692288
918200000 0.32189744 -0.054022912
918800000 0.328682528 -0.059358028
919400000 0.333303424 -0.054111012
920000000 0.337937984 -0.057778396
920600000 0.341158944 -0.057159752
921200000 0.34306208 -0.054639992
921800000 0.343518912 -0.053468352
922400000 0.337426592 -0.04992774
923000000 0.35666752 -0.060196588
923600000 0.356983904 -0.05549496
924200000 0.353292352 -0.049992884
924800000 0.362125792 -0.048463604
925400000 0.367291488 -0.062575756
926000000 0.366665856 -0.056146332
926600000 0.365694784 -0.051882572
927200000 0.370735936 -0.054473724
927800000 0.374698432 -0.054361228
928400000 0.37963824 -0.050002216
929000000 0.38241616 -0.049281668
929600000 0.384272608 -0.050352896
930200000 0.384686752 -0.053593912
930800000 0.393536928 -0.04919878
931400000 0.384612864 -0.052824892
932000000 0.39627568 -0.051985068
932600000 0.404177024 -0.058342668
933200000 0.403540224 -0.052058328
933800000 0.405468096 -0.054978544
934400000 0.408419232 -0.057196748
935000000 0.413857536 -0.052918892
935600000 0.41424752 -0.056214136
936200000 0.423111296 -0.05669852
936800000 0.4226504 -0.05820748
937400000 0.427205312 -0.057664144
938000000 0.425765824 -0.06305764
938600000 0.430467296 -0.057378396
939200000 0.43207168 -0.061791732
939800000 0.43661888 -0.064845792
940400000 0.441205952 -0.060016044
941000000 0.444033536 -0.065225712
941600000 0.45365904 -0.059710704
942200000 0.449527488 -0.069537776
942800000 0.453992448 -0.066917956
943400000 0.457731264 -0.06415958
944000000 0.460960448 -0.07486868
944600000 0.465713888 -0.071651088
945200000 0.465086208 -0.075255584
945800000 0.465365792 -0.075209368
946400000 0.47305328 -0.065234064
947000000 0.46677328 -0.075424768
947600000 0.46750976 -0.081400248
948200000 0.471518976 -0.077531576
948800000 0.481122304 -0.081183584
949400000 0.473794144 -0.086671728
950000000 0.48121664 -0.081669768
