# HZ S RI R 50
890000000 0.292860192 -0.147512768
890600000 0.29185248 -0.144066096
891200000 0.289584096 -0.14537392
891800000 0.30993472 -0.137156496
892400000 0.296554848 -0.14096792
893000000 0.301648064 -0.138098736
893600000 0.300861792 -0.136245312
894200000 0.299805088 -0.139684576
894800000 0.300738528 -0.134072048
895400000 0.302572512 -0.133136544
896000000 0.302368832 -0.13670472
896600000 0.305456736 -0.128765896
897200000 0.306557056 -0.132866424
897800000 0.312737088 -0.128954632
898400000 0.313486272 -0.122524328
899000000 0.315642016 -0.12583588
899600000 0.315216992 -0.12369316
900200000 0.32080528 -0.123821744
900800000 0.3234936 -0.121845296
901400000 0.322389216 -0.120617016
902000000 0.322985344 -0.117347544
902600000 0.32872064 -0.118277792
903200000 0.325913056 -0.113392176
903800000 0.333072384 -0.115284728
904400000 0.332657472 -0.111049704
905000000 0.34131024 -0.111666424
905600000 0.3389584 -0.108377936
906200000 0.3247152 -0.067096628
906800000 0.35633472 -0.113338944
907400000 0.352303872 -0.105573744
908000000 0.345907968 -0.10385372
908600000 0.347388064 -0.102908864
909200000 0.35835984 -0.108662352
909800000 0.361558784 -0.109130712
910400000 0.360916224 -0.111477808
911000000 0.366763584 -0.106274168
911600000 0.357256288 -0.100601368
912200000 0.364286464 -0.100764344
912800000 0.371169056 -0.105139464
913400000 0.374665888 -0.0921534
914000000 0.379076352 -0.101799624
914600000 0.3797952 -0.098011696
915200000 0.3794976 -0.098551776
915800000 0.379758176 -0.095442728
916400000 0.382428704 -0.099437544
917000000 0.389261856 -0.105101296
917600000 0.386148544 -0.100835184
918200000 0.393947968 -0.102436424
918800000 0.396355904 -0.097412272
919400000 0.398847552 -0.096145928
920000000 0.397480896 -0.105382472
920600000 0.40462544 -0.101436528
921200000 0.39786128 -0.100866152
921800000 0.410686368 -0.108168024
922400000 0.39912272 -0.11357268
923000000 0.412154464 -0.111153352
923600000 0.406447776 -0.105070416
924200000 0.410861408 -0.102786992
924800000 0.408517248 -0.105438096
925400000 0.418297152 -0.109322328
926000000 0.408856256 -0.105840864
926600000 0.41490096 -0.102267928
927200000 0.411760192 -0.103399328
927800000 0.421693088 -0.101647712
928400000 0.418108448 -0.100585872
929000000 0.4244144 -0.101132576
929600000 0.427898048 -0.101059616
930200000 0.423995808 -0.09527724
930800000 0.423218304 -0.104545176
931400000 0.434077824 -0.097165064
932000000 0.428236832 -0.099261104
932600000 0.435690144 -0.097650328
933200000 0.43698544 -0.098260264
933800000 0.43562384 -0.10115444
934400000 0.439997696 -0.093878288
935000000 0.445311264 -0.09924772
935600000 0.439960128 -0.098367648
936200000 0.446427616 -0.099036304
936800000 0.444735232 -0.100014344
937400000 0.447260224 -0.1002666
938000000 0.454824672 -0.100697808
938600000 0.448418304 -0.099649088
939200000 0.45108128 -0.098472896
939800000 0.454127296 -0.102627896
940400000 0.461285248 -0.099212136
941000000 0.465274688 -0.100075976
941600000 0.463510208 -0.099478392
942200000 0.472210592 -0.099422008
942800000 0.464735968 -0.10647372
943400000 0.471054848 -0.100825632
944000000 0.471780192 -0.096656464
944600000 0.473064064 -0.1046444
945200000 0.47672464 -0.103375728
945800000 0.473853152 -0.103741584
946400000 0.47965296 -0.117574512
947000000 0.483292928 -0.101265464
947600000 0.484824704 -0.104064864
948200000 0.480616736 -0.105406192
948800000 0.490603904 -0.107581504
949400000 0.493899296 -0.102047544
950000000 0.493221312 -0.105106256
