# HZ S RI R 50
890000000 -0.172167616 -0.126641928
890600000 -0.165971744 -0.118076824
891200000 -0.168414304 -0.117718096
891800000 -0.163727136 -0.110347312
892400000 -0.16122272 -0.104080792
893000000 -0.16304192 -0.105684472
893600000 -0.158122304 -0.094459384
894200000 -0.160035184 -0.091371824
894800000 -0.154595744 -0.09130948
895400000 -0.152652912 -0.08510604
896000000 -0.14474872 -0.08317588
896600000 -0.145017024 -0.075917752
897200000 -0.143155248 -0.078683544
897800000 -0.143458304 -0.071772112
898400000 -0.143466656 -0.073727768
899000000 -0.13822304 -0.064541952
899600000 -0.133961008 -0.061140048
900200000 -0.134677232 -0.062391468
900800000 -0.134585136 -0.05558764
901400000 -0.13217296 -0.0564568
902000000 -0.126943856 -0.047504484
902600000 -0.125646416 -0.044230464
903200000 -0.120882376 -0.039936164
903800000 -0.12476056 -0.0419437
904400000 -0.121141104 -0.031824622
905000000 -0.11342824 -0.030455366
905600000 -0.118410112 -0.030614914
906200000 -0.118803352 -0.028797576
906800000 -0.10875496 -0.014793608
907400000 -0.111678312 -0.016638324
908000000 -0.105720216 -0.009471454
908600000 -0.100783456 -0.01195423
909200000 -0.093102656 -0.004492307
909800000 -0.095185184 -0.001158395
910400000 -0.093226016 0.009070708
911000000 -0.093708288 0.009432534
911600000 -0.08726872 0.018177784
912200000 -0.085984424 0.012193798
912800000 -0.077521 0.015743564
913400000 -0.076175032 0.025821396
914000000 -0.069193352 0.023170528
914600000 -0.069656944 0.029769682
915200000 -0.061044516 0.03427332
915800000 -0.0603662 0.037689752
916400000 -0.056518744 0.042853628
917000000 -0.05019016 0.045271456
917600000 -0.04353102 0.042564892
918200000 -0.042373832 0.054108004
918800000 -0.037519376 0.04613886
919400000 -0.032670114 0.05304614
920000000 -0.02363744 0.052980872
920600000 -0.024676364 0.059255432
921200000 -0.026551268 0.058866636
921800000 -0.017856184 0.065335268
922400000 -0.01111508 0.061954468
923000000 -0.006259545 0.06656182
923600000 -0.007140131 0.067073696
924200000 8.6953e-05 0.069521208
924800000 -0.001732737 0.071256304
925400000 0.006596488 0.064909244
926000000 0.010683554 0.07284936
926600000 0.011346748 0.076523408
927200000 0.021856834 0.07463148
927800000 0.018890118 0.07617284
928400000 0.029342662 0.082693848
929000000 0.034309988 0.080504096
929600000 0.03650074 0.082810416
930200000 0.03667506 0.091140408
930800000 0.04435868 0.091085024
931400000 0.049641244 0.093386144
932000000 0.052930756 0.088571424
932600000 0.055099752 0.094547776
933200000 0.06453018 0.090776608
933800000 0.066110252 0.1000758
934400000 0.075549344 0.0968666
935000000 0.076523504 0.099262696
935600000 0.076228896 0.098693224
936200000 0.08190432 0.100567472
936800000 0.093727904 0.10078052
937400000 0.093340656 0.097517096
938000000 0.098662304 0.097710184
938600000 0.106565512 0.10625428
939200000 0.103682872 0.104232072
939800000 0.11378476 0.099176008
940400000 0.114249896 0.10686056
941000000 0.115165688 0.106195744
941600000 0.124427872 0.102782424
942200000 0.124478464 0.103969536
942800000 0.134131968 0.107797488
943400000 0.137327536 0.09898648
944000000 0.14132416 0.10583656
944600000 0.147483632 0.10872332
945200000 0.150454672 0.10121036
945800000 0.152427728 0.101274528
946400000 0.165442128 0.103733152
947000000 0.166625584 0.101024376
947600000 0.166706048 0.105373416
948200000 0.177208736 0.098346056
948800000 0.174912144 0.097582792
949400000 0.177974384 0.101206672
950000000 0.18144264 0.097027088
