# HZ S RI R 50
890000000 -0.19550104 0.147966192
890600000 -0.188176752 0.146962304
891200000 -0.187686576 0.144893824
891800000 -0.182404224 0.15184168
892400000 -0.18029016 0.147350368
893000000 -0.178360544 0.142525632
893600000 -0.172809728 0.146492128
894200000 -0.165833552 0.143008848
894800000 -0.16661008 0.13973064
895400000 -0.154874304 0.148313968
896000000 -0.150856208 0.15087656
896600000 -0.150745488 0.147797152
897200000 -0.146242576 0.147237408
897800000 -0.138086656 0.150469728
898400000 -0.134245344 0.148605504
899000000 -0.127896696 0.148539664
899600000 -0.121896304 0.143051232
900200000 -0.117195776 0.14147952
900800000 -0.10796844 0.144013424
901400000 -0.106229424 0.1398836
902000000 -0.098353144 0.134798704
902600000 -0.094343368 0.133581312
903200000 -0.08671672 0.133363216
903800000 -0.083503832 0.130215688
904400000 -0.081304128 0.12081012
905000000 -0.074625896 0.120042304
905600000 -0.071562624 0.11791132
906200000 -0.066266104 0.11718384
906800000 -0.0649257 0.108712048
907400000 -0.069112064 0.10315224
908000000 -0.06175978 0.099577336
908600000 -0.054266776 0.098357184
909200000 -0.052662936 0.0857762
909800000 -0.05381352 0.07362368
910400000 -0.048457008 0.085213112
911000000 -0.048252792 0.078080256
911600000 -0.049794068 0.075085792
912200000 -0.049004616 0.07236648
912800000 -0.045865532 0.069355792
913400000 -0.042496184 0.06401366
914000000 -0.041185336 0.059084924
914600000 -0.035187868 0.055830888
915200000 -0.031620424 0.04924762
915800000 -0.031772744 0.045219964
916400000 -0.033444222 0.034506088
917000000 -0.030357054 0.035546396
917600000 -0.029579742 0.028137506
918200000 -0.03183401 0.016124854
918800000 -0.034384604 0.009632914
919400000 -0.035296868 0.007648345
920000000 -0.037459112 0.003707238
920600000 -0.039290188 -0.001981201
921200000 -0.044790196 -0.01321512
921800000 -0.045013604 -0.021318676
922400000 -0.049912432 -0.02257451
923000000 -0.050756308 -0.027683538
923600000 -0.057620744 -0.03256587
924200000 -0.059988376 -0.0386944
924800000 -0.071411272 -0.039672836
925400000 -0.077924144 -0.04387054
926000000 -0.081979344 -0.044325068
926600000 -0.091742296 -0.043741488
927200000 -0.093160424 -0.046950832
927800000 -0.103006992 -0.04940292
928400000 -0.108918512 -0.048402192
929000000 -0.116948632 -0.043776872
929600000 -0.1197606 -0.04231982
930200000 -0.130150408 -0.038529416
930800000 -0.136179104 -0.03649766
931400000 -0.1453148 -0.035430472
932000000 -0.145275808 -0.035762304
932600000 -0.148867328 -0.030238798
933200000 -0.151418352 -0.023949718
933800000 -0.157486416 -0.025267458
934400000 -0.166207184 -0.020512952
935000000 -0.167891488 -0.014690472
935600000 -0.170093952 -0.009407766
936200000 -0.165480272 -0.006289711
936800000 -0.177654384 -0.002537651
937400000 -0.172436704 0.00162085
938000000 -0.177971984 0.004413193
938600000 -0.184217024 0.00732957
939200000 -0.186309552 0.010580106
939800000 -0.190062416 0.017244016
940400000 -0.19461232 0.024903646
941000000 -0.199917312 0.023255978
941600000 -0.202002128 0.032378372
942200000 -0.201656064 0.041066396
942800000 -0.208888976 0.049574664
943400000 -0.20410728 0.054751956
944000000 -0.210516784 0.064762144
944600000 -0.218356016 0.071266856
945200000 -0.220763392 0.07921524
945800000 -0.214889792 0.086721912
946400000 -0.218466608 0.096764896
947000000 -0.217551136 0.10891252
947600000 -0.218484752 0.114586008
948200000 -0.21643864 0.127455624
948800000 -0.21694416 0.142832992
949400000 -0.215228944 0.14701304
950000000 -0.216071104 0.159647904
