# HZ S RI R 50
890000000 0.349892576 -0.09537444
890600000 0.347630176 -0.106363464
891200000 0.335815072 -0.109556728
891800000 0.326054304 -0.11328312
892400000 0.329979712 -0.124979224
893000000 0.323899424 -0.131545544
893600000 0.31897808 -0.137316752
894200000 0.313058624 -0.147003264
894800000 0.310716672 -0.158668592
895400000 0.30403248 -0.164831424
896000000 0.305115744 -0.172882224
896600000 0.296609216 -0.176653616
897200000 0.289766912 -0.184081184
897800000 0.284508512 -0.187973792
898400000 0.27603872 -0.198954176
899000000 0.271771136 -0.201229088
899600000 0.25940648 -0.2048904
900200000 0.256564496 -0.209760928
900800000 0.242996032 -0.215391264
901400000 0.237024336 -0.216314144
902000000 0.228354816 -0.217862464
902600000 0.218948864 -0.227740352
903200000 0.215661936 -0.225456704
903800000 0.205626352 -0.228452288
904400000 0.19629152 -0.23208712
905000000 0.188537872 -0.230941072
905600000 0.184437168 -0.231998128
906200000 0.153953552 -0.248653344
906800000 0.170282304 -0.229387488
907400000 0.162421232 -0.233262544
908000000 0.156653664 -0.238596256
908600000 0.14839016 -0.230972224
909200000 0.142307408 -0.239749808
909800000 0.127112432 -0.222914528
910400000 0.124473384 -0.229980768
911000000 0.121401816 -0.219199344
911600000 0.120647744 -0.224352672
912200000 0.111249296 -0.220164384
912800000 0.104504128 -0.225587104
913400000 0.104001536 -0.224235856
914000000 0.100156456 -0.217923328
914600000 0.091052856 -0.211942288
915200000 0.08783532 -0.211165968
915800000 0.082293024 -0.206273008
916400000 0.080513608 -0.197660896
917000000 0.076667688 -0.201487632
917600000 0.077761064 -0.193486336
918200000 0.072757424 -0.188894128
918800000 0.071724768 -0.179091536
919400000 0.07250088 -0.174333952
920000000 0.069091512 -0.17059968
920600000 0.071495544 -0.167249552
921200000 0.07526792 -0.163462944
921800000 0.075796464 -0.15894144
922400000 0.076800432 -0.156240112
923000000 0.083192696 -0.148875472
923600000 0.089807544 -0.150177328
924200000 0.090851984 -0.149337568
924800000 0.10031496 -0.147082928
925400000 0.102751296 -0.149614592
926000000 0.106794208 -0.145672144
926600000 0.108506688 -0.149539072
927200000 0.113469864 -0.1550468
927800000 0.11757744 -0.154651456
928400000 0.132965192 -0.155786416
929000000 0.127512408 -0.163812576
929600000 0.132222664 -0.161900352
930200000 0.137598528 -0.169115936
930800000 0.143734448 -0.171928352
931400000 0.14175048 -0.17786168
932000000 0.1463204 -0.189472416
932600000 0.154644304 -0.192422032
933200000 0.151052224 -0.194177152
933800000 0.149794352 -0.20057504
934400000 0.154187728 -0.207018928
935000000 0.150599872 -0.217221936
935600000 0.152381072 -0.225086432
936200000 0.15458552 -0.226722768
936800000 0.153544976 -0.233066064
937400000 0.154689104 -0.241217248
938000000 0.156256688 -0.24653872
938600000 0.154388368 -0.25604216
939200000 0.152452016 -0.261061424
939800000 0.151322688 -0.268873376
940400000 0.15206912 -0.28123888
941000000 0.154880176 -0.281981632
941600000 0.147920848 -0.294751808
942200000 0.155995968 -0.300386016
942800000 0.142868736 -0.309808288
943400000 0.141984384 -0.320359808
944000000 0.142178064 -0.333768096
944600000 0.13618968 -0.340321696
945200000 0.133515624 -0.353076512
945800000 0.131013512 -0.357025216
946400000 0.130452024 -0.362598176
947000000 0.117755696 -0.383518496
947600000 0.107008872 -0.38807584
948200000 0.103344936 -0.396059712
948800000 0.091500696 -0.410818848
949400000 0.085880968 -0.416278336
950000000 0.071579192 -0.42604976
