# HZ S RI R 50
890000000 -0.275278848 0.330650144
890600000 -0.264168672 0.333975648
891200000 -0.257240944 0.336266624
891800000 -0.24759384 0.33862752
892400000 -0.24434232 0.334976032
893000000 -0.234737712 0.335038496
893600000 -0.228355824 0.336080288
894200000 -0.22058088 0.339103744
894800000 -0.212819824 0.336603968
895400000 -0.20894288 0.336827424
896000000 -0.204737584 0.33623072
896600000 -0.199487536 0.333394976
897200000 -0.19011024 0.333424896
897800000 -0.188940384 0.332183776
898400000 -0.186649136 0.337379968
899000000 -0.183662944 0.335870656
899600000 -0.174559216 0.339211872
900200000 -0.172487648 0.339910752
900800000 -0.168157136 0.340920256
901400000 -0.166929936 0.342190976
902000000 -0.157375904 0.341248832
902600000 -0.162199792 0.339886208
903200000 -0.157123712 0.34971424
903800000 -0.150766528 0.345030016
904400000 -0.148644768 0.356207712
905000000 -0.141002768 0.357998752
905600000 -0.13976832 0.362598912
906200000 -0.133171184 0.364197472
906800000 -0.127147896 0.372372928
907400000 -0.116792592 0.37151008
908000000 -0.11471832 0.375510784
908600000 -0.099632808 0.373395008
909200000 -0.095819472 0.375138656
909800000 -0.088543552 0.377536288
910400000 -0.08282132 0.379748032
911000000 -0.069969048 0.383910112
911600000 -0.062395444 0.37964736
912200000 -0.055265976 0.38164112
912800000 -0.04782758 0.38131232
913400000 -0.039839564 0.3817928
914000000 -0.036683224 0.376096544
914600000 -0.026408278 0.377232576
915200000 -0.019349204 0.375556064
915800000 -0.014940036 0.375471232
916400000 -0.006586621 0.381128416
917000000 0.004035073 0.376211296
917600000 0.009133816 0.38016608
918200000 0.020159674 0.373272352
918800000 0.02416215 0.371004672
919400000 0.032704212 0.36675312
920000000 0.041366876 0.372770144
920600000 0.049413964 0.367488192
921200000 0.057848292 0.363662016
921800000 0.06473366 0.362570016
922400000 0.067713792 0.357090464
923000000 0.07777076 0.351850048
923600000 0.088113752 0.346865696
924200000 0.095431712 0.344573888
924800000 0.098626768 0.33456512
925400000 0.108154328 0.32716208
926000000 0.11632476 0.332637408
926600000 0.124394776 0.323523904
927200000 0.128754272 0.319518112
927800000 0.136509232 0.308779488
928400000 0.14322744 0.30607872
929000000 0.14639144 0.292755136
929600000 0.144477872 0.285813888
930200000 0.157802384 0.276322784
930800000 0.161993824 0.272650144
931400000 0.16423808 0.268063696
932000000 0.162526656 0.262431648
932600000 0.166875248 0.248841904
933200000 0.172434576 0.246527456
933800000 0.173304592 0.237397888
934400000 0.17724392 0.233884896
935000000 0.17751112 0.223044544
935600000 0.174843168 0.218489008
936200000 0.176715088 0.212332192
936800000 0.178001056 0.207798544
937400000 0.17720784 0.209297808
938000000 0.172984688 0.197938752
938600000 0.177271936 0.193310736
939200000 0.17997096 0.188176528
939800000 0.183152496 0.18727144
940400000 0.181982592 0.184512592
941000000 0.189421856 0.172479664
941600000 0.185724288 0.167338128
942200000 0.190998112 0.166285472
942800000 0.195416928 0.157936016
943400000 0.196746416 0.153374784
944000000 0.191090864 0.152177616
944600000 0.19027592 0.144224096
945200000 0.191004864 0.138449328
945800000 0.19327088 0.138023472
946400000 0.19984488 0.13211292
947000000 0.196757888 0.12410832
947600000 0.193814496 0.119971424
948200000 0.194183152 0.114549464
948800000 0.19823216 0.111674288
949400000 0.200074016 0.108132336
950000000 0.200405168 0.103251408
