# HZ S RI R 50
890000000 0.431226688 -0.140135104
890600000 0.43303968 -0.14150768
891200000 0.430392864 -0.146672544
891800000 0.42800496 -0.16676544
892400000 0.434614048 -0.149006896
893000000 0.429863232 -0.161226064
893600000 0.4279528 -0.160650432
894200000 0.42345216 -0.165130576
894800000 0.420904928 -0.167154656
895400000 0.425157536 -0.17071008
896000000 0.421965056 -0.177224416
896600000 0.416025536 -0.177733824
897200000 0.413026944 -0.175927184
897800000 0.415103136 -0.183703952
898400000 0.414395328 -0.191400112
899000000 0.41061696 -0.18544736
899600000 0.409910432 -0.189625632
900200000 0.408287264 -0.189154784
900800000 0.408436224 -0.201298656
901400000 0.40553888 -0.206290048
902000000 0.39893568 -0.207344512
902600000 0.398669152 -0.211006432
903200000 0.405022784 -0.21207952
903800000 0.40137472 -0.217025584
904400000 0.401041376 -0.215191904
905000000 0.39323504 -0.222397056
905600000 0.395448 -0.220258944
906200000 0.40413136 -0.1741672
906800000 0.391552288 -0.225210576
907400000 0.385510336 -0.233403968
908000000 0.38073952 -0.231912144
908600000 0.381126752 -0.2256452
909200000 0.378816032 -0.236275584
909800000 0.37653504 -0.235801856
910400000 0.380160672 -0.244073648
911000000 0.363638976 -0.246560192
911600000 0.370581568 -0.246027696
912200000 0.369709984 -0.255432096
912800000 0.371571552 -0.251999728
913400000 0.369701248 -0.24801424
914000000 0.366911328 -0.262098464
914600000 0.364961056 -0.263921712
915200000 0.362775872 -0.2605784
915800000 0.36665904 -0.262652368
916400000 0.358341152 -0.273964512
917000000 0.355375136 -0.274950848
917600000 0.361018464 -0.277541792
918200000 0.3580088 -0.276876064
918800000 0.348283968 -0.28101696
919400000 0.355043552 -0.283811648
920000000 0.345012416 -0.283843328
920600000 0.343636896 -0.286226176
921200000 0.345618496 -0.292087808
921800000 0.340624032 -0.293097696
922400000 0.32537904 -0.29449376
923000000 0.336851552 -0.297010208
923600000 0.331674368 -0.30305392
924200000 0.333478048 -0.30388512
924800000 0.3310712 -0.30030496
925400000 0.325174848 -0.303420128
926000000 0.32084912 -0.309493408
926600000 0.322217248 -0.316242272
927200000 0.31646448 -0.316612384
927800000 0.31883472 -0.315763072
928400000 0.314649888 -0.322471584
929000000 0.310004096 -0.3219008
929600000 0.30844544 -0.323660352
930200000 0.307552448 -0.328596736
930800000 0.307185664 -0.329527552
931400000 0.298547968 -0.32671152
932000000 0.302178848 -0.335154912
932600000 0.296019136 -0.3283232
933200000 0.296388064 -0.332969024
933800000 0.292031744 -0.338181568
934400000 0.284641888 -0.343444576
935000000 0.279676928 -0.340102912
935600000 0.28049776 -0.340293184
936200000 0.275792288 -0.344586304
936800000 0.273513984 -0.340220832
937400000 0.273759232 -0.345660256
938000000 0.268048672 -0.345988896
938600000 0.2688616 -0.348151616
939200000 0.26702392 -0.348193472
939800000 0.26533488 -0.356480512
940400000 0.260485136 -0.354871776
941000000 0.252902592 -0.361444672
941600000 0.25641104 -0.357513056
942200000 0.249192096 -0.357337088
942800000 0.24470528 -0.35805024
943400000 0.240717376 -0.363022816
944000000 0.240921168 -0.356357696
944600000 0.239823728 -0.366378208
945200000 0.232858352 -0.367008384
945800000 0.23224216 -0.369052224
946400000 0.232226128 -0.362554016
947000000 0.22725432 -0.363266176
947600000 0.222725616 -0.367797696
948200000 0.225052656 -0.368436832
948800000 0.21747736 -0.366451456
949400000 0.208383568 -0.370037024
950000000 0.212841488 -0.367466464
