# HZ S RI R 50
890000000 0.716855488 -0.30086176
890600000 0.708922048 -0.30278144
891200000 0.708940544 -0.307712832
891800000 0.715659648 -0.292542656
892400000 0.70590912 -0.326957856
893000000 0.698232256 -0.326305856
893600000 0.690851968 -0.340958592
894200000 0.68735072 -0.345246688
894800000 0.67553376 -0.341892
895400000 0.683259392 -0.364502592
896000000 0.672564224 -0.36068672
896600000 0.677940224 -0.370357568
897200000 0.67134752 -0.372480768
897800000 0.661144128 -0.382113696
898400000 0.661149376 -0.385859456
899000000 0.6554336 -0.3914064
899600000 0.651722368 -0.400546336
900200000 0.645095552 -0.40411712
900800000 0.640455744 -0.418139648
901400000 0.634860544 -0.420399328
902000000 0.628676736 -0.43002128
902600000 0.628234944 -0.437871488
903200000 0.616953088 -0.438520256
903800000 0.618342528 -0.445114464
904400000 0.613179712 -0.448542848
905000000 0.602111424 -0.45171232
905600000 0.597328448 -0.46365728
906200000 0.531543072 -0.45078912
906800000 0.58697856 -0.472101216
907400000 0.584173184 -0.493189024
908000000 0.578061056 -0.48462176
908600000 0.566712384 -0.488480032
909200000 0.56243424 -0.49544832
909800000 0.555226432 -0.497371456
910400000 0.556095104 -0.505161888
911000000 0.564372544 -0.52477552
911600000 0.541817536 -0.51739168
912200000 0.53980928 -0.512179328
912800000 0.532196512 -0.518192704
913400000 0.522758592 -0.52999728
914000000 0.515852512 -0.532504736
914600000 0.508075968 -0.529417568
915200000 0.5053504 -0.533873632
915800000 0.498589664 -0.540415104
916400000 0.492189664 -0.546448512
917000000 0.487656384 -0.549647424
917600000 0.479767584 -0.550622272
918200000 0.474294464 -0.54882112
918800000 0.465611712 -0.559949824
919400000 0.458437952 -0.569477952
920000000 0.455101696 -0.571260352
920600000 0.45043312 -0.569826176
921200000 0.440294752 -0.570854976
921800000 0.438516096 -0.582964416
922400000 0.428985376 -0.571359424
923000000 0.421907776 -0.59592032
923600000 0.419416544 -0.59216992
924200000 0.413218112 -0.59077152
924800000 0.405655456 -0.596975296
925400000 0.403891808 -0.598777216
926000000 0.388531712 -0.599767104
926600000 0.386675648 -0.610417664
927200000 0.37853216 -0.611360192
927800000 0.371000384 -0.61377184
928400000 0.36302224 -0.611143296
929000000 0.36098928 -0.619641728
929600000 0.351760864 -0.619651264
930200000 0.346067712 -0.62331328
930800000 0.33354144 -0.630627712
931400000 0.326577632 -0.6253056
932000000 0.3193848 -0.630299008
932600000 0.316934528 -0.629196416
933200000 0.29974496 -0.63433984
933800000 0.30095984 -0.635975232
934400000 0.290257728 -0.635998464
935000000 0.282714944 -0.639619328
935600000 0.278200128 -0.645873344
936200000 0.267929648 -0.643525568
936800000 0.263997264 -0.642126208
937400000 0.261281792 -0.646206208
938000000 0.247694384 -0.645125824
938600000 0.245596128 -0.651234496
939200000 0.242059232 -0.651183168
939800000 0.23201064 -0.64542784
940400000 0.223050608 -0.649873216
941000000 0.221206576 -0.657544256
941600000 0.212521344 -0.652090816
942200000 0.20973888 -0.652570944
942800000 0.200264864 -0.659812096
943400000 0.189792976 -0.660756992
944000000 0.184089088 -0.651775872
944600000 0.184008432 -0.660813504
945200000 0.168087952 -0.654568384
945800000 0.168312736 -0.66055712
946400000 0.161992032 -0.652861184
947000000 0.148810192 -0.663274048
947600000 0.142449712 -0.66172032
948200000 0.139686352 -0.659481408
948800000 0.127588512 -0.659743488
949400000 0.122409864 -0.659443072
950000000 0.112881144 -0.661353024
