# HZ S RI R 50
890000000 0.874908096 -0.12080988
890600000 0.866691328 -0.133763208
891200000 0.864074048 -0.144105344
891800000 0.89013216 -0.150869104
892400000 0.857547776 -0.145234688
893000000 0.86311232 -0.16370832
893600000 0.862954944 -0.173890864
894200000 0.859149888 -0.182266672
894800000 0.865291136 -0.20022864
895400000 0.859490624 -0.191920272
896000000 0.844477312 -0.206407856
896600000 0.849806464 -0.211187088
897200000 0.84699456 -0.216175184
897800000 0.84275968 -0.22725392
898400000 0.838932544 -0.234193088
899000000 0.834219904 -0.242361552
899600000 0.836285952 -0.249843472
900200000 0.833100032 -0.253847984
900800000 0.832437376 -0.267709616
901400000 0.832536512 -0.276244544
902000000 0.828027776 -0.276363456
902600000 0.81984576 -0.288095744
903200000 0.81684384 -0.299679232
903800000 0.819410816 -0.301476704
904400000 0.808224 -0.311979008
905000000 0.810438976 -0.32076656
905600000 0.80421344 -0.323231328
906200000 0.868198528 -0.397258464
906800000 0.803646208 -0.348214496
907400000 0.794692352 -0.347521696
908000000 0.794360576 -0.353118752
908600000 0.794674432 -0.366544928
909200000 0.78563264 -0.364812448
909800000 0.779405568 -0.374251552
910400000 0.776299328 -0.38538464
911000000 0.786938432 -0.41109648
911600000 0.764924672 -0.402432384
912200000 0.777356544 -0.400834784
912800000 0.757145792 -0.405150464
913400000 0.743463552 -0.430841632
914000000 0.75052288 -0.427790304
914600000 0.746557696 -0.44023904
915200000 0.739753024 -0.44564144
915800000 0.743006976 -0.453275776
916400000 0.73528 -0.460886784
917000000 0.724323776 -0.469808544
917600000 0.731340736 -0.477528096
918200000 0.715190016 -0.484551872
918800000 0.719051136 -0.491621696
919400000 0.706246144 -0.499712416
920000000 0.705519936 -0.495725984
920600000 0.70223008 -0.509140544
921200000 0.698083392 -0.514819968
921800000 0.687292544 -0.520463936
922400000 0.676468032 -0.544966144
923000000 0.676744128 -0.535315328
923600000 0.674991936 -0.54235648
924200000 0.673400448 -0.551341056
924800000 0.660564992 -0.55900096
925400000 0.668021696 -0.560561152
926000000 0.646700608 -0.571622208
926600000 0.646350592 -0.576848832
927200000 0.635819968 -0.579305088
927800000 0.632712448 -0.58440192
928400000 0.626487936 -0.5908336
929000000 0.6226352 -0.598004416
929600000 0.614424448 -0.60572768
930200000 0.6079216 -0.613803264
930800000 0.6037952 -0.614372544
931400000 0.589629696 -0.612948416
932000000 0.593283072 -0.628647872
932600000 0.581666752 -0.631614976
933200000 0.579382144 -0.634934976
933800000 0.564911552 -0.64700128
934400000 0.5609248 -0.654156416
935000000 0.552371136 -0.661270976
935600000 0.550237312 -0.6645952
936200000 0.539385472 -0.670828608
936800000 0.53584528 -0.669464896
937400000 0.531219648 -0.675508352
938000000 0.523906816 -0.68145888
938600000 0.512531104 -0.6852592
939200000 0.506336864 -0.68885632
939800000 0.499629312 -0.691685504
940400000 0.489680672 -0.700242944
941000000 0.486403968 -0.706765184
941600000 0.475445728 -0.706155328
942200000 0.46530144 -0.711411712
942800000 0.458346496 -0.716491328
943400000 0.460050048 -0.7273424
944000000 0.446689888 -0.727825664
944600000 0.444225248 -0.734704576
945200000 0.435637888 -0.73364352
945800000 0.428403296 -0.742549568
946400000 0.40662912 -0.735347648
947000000 0.405611584 -0.747548352
947600000 0.401674272 -0.747037376
948200000 0.395830272 -0.755905536
948800000 0.387223456 -0.755263104
949400000 0.37797744 -0.765368832
950000000 0.368717536 -0.765358016
