# HZ S RI R 50
890000000 0.119840504 -0.007409591
890600000 0.113578784 0.000715342
891200000 0.107141472 0.000889676
891800000 0.103982096 0.009688848
892400000 0.09981324 0.015578668
893000000 0.095052784 0.015425378
893600000 0.087549216 0.01978514
894200000 0.080134904 0.02784115
894800000 0.075627376 0.03660306
895400000 0.06621588 0.040173736
896000000 0.066511488 0.050327568
896600000 0.0602684 0.056288072
897200000 0.058992544 0.063447544
897800000 0.053052756 0.063524292
898400000 0.054412128 0.069099168
899000000 0.052179668 0.079937144
899600000 0.045289312 0.08731372
900200000 0.045536596 0.089339344
900800000 0.040806408 0.099039832
901400000 0.037221212 0.096520952
902000000 0.033516176 0.101913472
902600000 0.027459074 0.108274856
903200000 0.031314298 0.11625408
903800000 0.027760424 0.11919408
904400000 0.02186577 0.129029584
905000000 0.022360488 0.126838712
905600000 0.014741714 0.138833776
906200000 0.032514866 0.138687856
906800000 0.01076984 0.146601392
907400000 0.007877025 0.159549312
908000000 0.001833386 0.155548608
908600000 0.00297584 0.170122064
909200000 0.003975647 0.168912224
909800000 0.00138354 0.18406856
910400000 0.000533604 0.184968064
911000000 -0.00547569 0.189772928
911600000 -0.005734226 0.203433696
912200000 -0.01107364 0.203790592
912800000 -0.005454934 0.214421552
913400000 -0.007048012 0.216339568
914000000 -0.00933552 0.223537488
914600000 -0.012206686 0.22971568
915200000 -0.013443394 0.237519776
915800000 -0.014669882 0.249562496
916400000 -0.015968358 0.250543632
917000000 -0.010113732 0.263025008
917600000 -0.0102233 0.269951488
918200000 -0.015316094 0.2671284
918800000 -0.01052435 0.280394592
919400000 -0.010582556 0.289124928
920000000 -0.004472222 0.291206176
920600000 -0.004424845 0.296493472
921200000 -0.006764546 0.30993248
921800000 -0.006082558 0.30900768
922400000 -0.002476963 0.313728736
923000000 0.003254496 0.3256608
923600000 0.005495888 0.327479424
924200000 0.005849743 0.33639824
924800000 0.00933163 0.33560368
925400000 0.011663736 0.341623264
926000000 0.012178142 0.34557808
926600000 0.010292524 0.354811232
927200000 0.013592376 0.360092704
927800000 0.011639954 0.361764352
928400000 0.014258078 0.372719168
929000000 0.019481134 0.375739776
929600000 0.018651006 0.376100192
930200000 0.018851974 0.380918304
930800000 0.01900764 0.389931456
931400000 0.025134816 0.39725776
932000000 0.022114004 0.401998368
932600000 0.0277825 0.405021792
933200000 0.02815974 0.41066336
933800000 0.034673556 0.416089344
934400000 0.042195648 0.42311872
935000000 0.040294092 0.427339424
935600000 0.040993036 0.4304232
936200000 0.049072992 0.431586432
936800000 0.052559796 0.439286336
937400000 0.0569085 0.44710032
938000000 0.060979224 0.45252784
938600000 0.067314984 0.453860032
939200000 0.0649409 0.456919328
939800000 0.067874056 0.460891552
940400000 0.071045632 0.465942432
941000000 0.075192856 0.478684192
941600000 0.081706944 0.47633344
942200000 0.084490768 0.476261824
942800000 0.09149104 0.48061888
943400000 0.095008848 0.482361152
944000000 0.0965568 0.489269184
944600000 0.106810176 0.495213568
945200000 0.1113456 0.492077536
945800000 0.111087328 0.500571136
946400000 0.11944792 0.494782464
947000000 0.117251328 0.50338672
947600000 0.119013752 0.50792896
948200000 0.124526952 0.508877984
948800000 0.132770864 0.508312352
949400000 0.138695248 0.517751808
950000000 0.139874384 0.511897728
