# HZ S RI R 50
902000000 0.039287624 0.01320464 -0.278014688 -0.885506112 0 0 0 0
902260000 0.043839356 0.007551593 -0.3253728 -0.873083072 0 0 0 0
902520000 0.046424092 0.005433125 -0.369463392 -0.859205056 0 0 0 0
902780000 0.03898928 0.000143881 -0.411395712 -0.83969152 0 0 0 0
903040000 0.035615532 -0.002256868 -0.448944256 -0.822679552 0 0 0 0
903300000 0.038472096 -0.008281211 -0.490074176 -0.801877568 0 0 0 0
903560000 0.032506012 -0.012590754 -0.529362016 -0.77589536 0 0 0 0
903820000 0.025086178 -0.01190888 -0.567092096 -0.753050944 0 0 0 0
904080000 0.02217773 -0.0129053 -0.601259776 -0.724794176 0 0 0 0
904340000 0.02009601 -0.014146918 -0.633778176 -0.696972416 0 0 0 0
904600000 0.017080314 -0.023307002 -0.667861952 -0.666305216 0 0 0 0
904860000 0.012048838 -0.019249604 -0.699210816 -0.634220736 0 0 0 0
905120000 0.00668119 -0.022683504 -0.728320064 -0.602609344 0 0 0 0
905380000 0.003111261 -0.017643866 -0.756294848 -0.569118144 0 0 0 0
905640000 -0.003664374 -0.014860486 -0.781416832 -0.533039872 0 0 0 0
905900000 -0.005554808 -0.01814722 -0.80326016 -0.494423872 0 0 0 0
906160000 -0.019544878 -0.013709232 -0.824674496 -0.459502016 0 0 0 0
906420000 -0.021227348 -0.008189923 -0.847454336 -0.422842912 0 0 0 0
906680000 -0.02245999 -0.004331658 -0.866645824 -0.3836176 0 0 0 0
906940000 -0.031579748 -0.001098417 -0.88320384 -0.342622656 0 0 0 0
907200000 -0.030434366 -0.003811365 -0.896668608 -0.298039872 0 0 0 0
907460000 -0.042617428 0.003659322 -0.903570304 -0.262633776 0 0 0 0
907720000 -0.038924072 0.006972243 -0.920156288 -0.223348944 0 0 0 0
907980000 -0.046300304 0.010082734 -0.929642816 -0.166775552 0 0 0 0
908240000 -0.0483293 0.024054386 -0.94000128 -0.131834088 0 0 0 0
908500000 -0.042697924 0.021578158 -0.939922688 -0.096172688 0 0 0 0
908760000 -0.046148684 0.028230836 -0.942146176 -0.049854904 0 0 0 0
909020000 -0.046276196 0.040470512 -0.944208768 -0.014463782 0 0 0 0
909280000 -0.052138096 0.045609472 -0.940838912 0.028508842 0 0 0 0
909540000 -0.0458062 0.050467132 -0.941567424 0.072397056 0 0 0 0
909800000 -0.046156896 0.054458956 -0.939508928 0.107872008 0 0 0 0
910060000 -0.04776812 0.06185842 -0.913961856 0.166262992 0 0 0 0
910320000 -0.04506726 0.059039276 -0.92175488 0.192743536 0 0 0 0
910580000 -0.041662836 0.07394212 -0.91479008 0.227389632 0 0 0 0
910840000 -0.037463528 0.076700032 -0.901713152 0.269545728 0 0 0 0
911100000 -0.041273704 0.078528512 -0.890256256 0.306097216 0 0 0 0
911360000 -0.034022696 0.080665288 -0.870506432 0.347853248 0 0 0 0
911620000 -0.03545064 0.086398848 -0.856214528 0.381230048 0 0 0 0
911880000 -0.028406572 0.08712488 -0.837099136 0.414452608 0 0 0 0
912140000 -0.028743568 0.094255152 -0.823557504 0.450738688 0 0 0 0
912400000 -0.015432968 0.100687544 -0.802080704 0.479861184 0 0 0 0
912660000 -0.009122102 0.101338608 -0.7764768 0.514318112 0 0 0 0
912920000 -0.005513569 0.097245736 -0.755895872 0.547126592 0 0 0 0
913180000 -0.004569065 0.10300236 -0.734773312 0.576662592 0 0 0 0
913440000 0.005668382 0.104559336 -0.70678432 0.611206656 0 0 0 0
913700000 0.007502347 0.109247512 -0.680029696 0.637012928 0 0 0 0
913960000 0.009961238 0.105441008 -0.649889728 0.661815936 0 0 0 0
914220000 0.018906552 0.1081796 -0.623770688 0.69324128 0 0 0 0
914480000 0.017630614 0.104550824 -0.595169984 0.713074048 0 0 0 0
914740000 0.028168906 0.098828888 -0.56559488 0.737836928 0 0 0 0
915000000 0.03051995 0.103012736 -0.532751904 0.76201056 0 0 0 0
915260000 0.034724092 0.099464968 -0.50391568 0.78238112 0 0 0 0
915520000 0.040902576 0.098031168 -0.471305536 0.806936896 0 0 0 0
915780000 0.042944748 0.090196528 -0.434317216 0.825323136 0 0 0 0
916040000 0.04034682 0.089686232 -0.401065152 0.841760768 0 0 0 0
916300000 0.044465132 0.084590464 -0.36182656 0.856483264 0 0 0 0
916560000 0.047989924 0.075678616 -0.327085312 0.875768256 0 0 0 0
916820000 0.051406224 0.072695784 -0.293200128 0.884396096 0 0 0 0
917080000 0.051821004 0.072726904 -0.255863632 0.895873664 0 0 0 0
917340000 0.055098036 0.069031544 -0.217444128 0.904595712 0 0 0 0
917600000 0.05647244 0.065125228 -0.178657744 0.911892416 0 0 0 0
917860000 0.053679212 0.061413364 -0.13713032 0.922990592 0 0 0 0
918120000 0.054275292 0.057135288 -0.097520264 0.92588352 0 0 0 0
918380000 0.057916832 0.046465648 -0.054790616 0.928084672 0 0 0 0
918640000 0.05429186 0.040581164 -0.016768336 0.930593152 0 0 0 0
918900000 0.047505784 0.040355876 0.024167508 0.930721024 0 0 0 0
919160000 0.051836816 0.038159192 0.062372892 0.927914688 0 0 0 0
919420000 0.047794256 0.033122488 0.104341088 0.925588544 0 0 0 0
919680000 0.045320296 0.024665798 0.145132336 0.91955904 0 0 0 0
919940000 0.03821586 0.019362738 0.185090336 0.914978624 0 0 0 0
920200000 0.04182876 0.020869702 0.227818304 0.905829184 0 0 0 0
920460000 0.032248192 0.018470072 0.266202864 0.895051648 0 0 0 0
920720000 0.031253882 0.015459868 0.304641472 0.881946752 0 0 0 0
920980000 0.027521854 0.009471886 0.34690528 0.869623872 0 0 0 0
921240000 0.018093294 0.007164007 0.38457616 0.853202816 0 0 0 0
921500000 0.014282452 0.004313565 0.424212384 0.83418752 0 0 0 0
921760000 0.010926372 0.003639322 0.461966048 0.815534528 0 0 0 0
922020000 0.00177122 0.003489472 0.498988256 0.792508928 0 0 0 0
922280000 -0.001221396 0.007040469 0.534701536 0.769570496 0 0 0 0
922540000 -0.00866376 0.004417418 0.569180608 0.740858816 0 0 0 0
922800000 -0.00653888 0.006797867 0.602890368 0.71338592 0 0 0 0
923060000 -0.02147336 0.008367478 0.635288512 0.68472352 0 0 0 0
923320000 -0.018442848 0.007185361 0.668174848 0.65588736 0 0 0 0
923580000 -0.02422077 0.01567744 0.6980048 0.625701888 0 0 0 0
923840000 -0.027451124 0.013791464 0.725624704 0.592477696 0 0 0 0
924100000 -0.035958072 0.013994536 0.75354624 0.557962752 0 0 0 0
924360000 -0.032165722 0.020136708 0.780731584 0.52257168 0 0 0 0
924620000 -0.044290692 0.018730094 0.803048512 0.481812448 0 0 0 0
924880000 -0.048125744 0.023893528 0.8256512 0.437294912 0 0 0 0
925140000 -0.064670368 0.00740136 0.824741184 0.271339104 0 0 0 0
925400000 -0.052002572 0.034669508 0.867672768 0.36505568 0 0 0 0
925660000 -0.054688804 0.037333192 0.87597792 0.315283744 0 0 0 0
925920000 -0.051849532 0.034052904 0.891133696 0.275043072 0 0 0 0
926180000 -0.059174216 0.04312574 0.90493536 0.226807472 0 0 0 0
926440000 -0.062877276 0.051033488 0.910968128 0.184248416 0 0 0 0
926700000 -0.060050892 0.058988484 0.92107392 0.137255584 0 0 0 0
926960000 -0.05760582 0.060916176 0.921234176 0.092163176 0 0 0 0
927220000 -0.056322196 0.063904868 0.925182208 0.043720692 0 0 0 0
927480000 -0.062401276 0.071792424 0.925124736 -0.001879603 0 0 0 0
927740000 -0.057954876 0.075458784 0.9226816 -0.050762504 0 0 0 0
928000000 -0.058669092 0.07344208 0.91848864 -0.10344136 0 0 0 0
