# HZ S RI R 50
875000000 0.937994432 -0.036290812 0.000446764 0.009200368 0 0 0 0
875750000 0.927577856 -0.082057856 0.001220248 0.008966776 0 0 0 0
876500000 0.926873984 -0.139580864 0.002233955 0.009669078 0 0 0 0
877250000 0.919562752 -0.20107432 0.002146783 0.008504108 0 0 0 0
878000000 0.896630848 -0.263398384 0.001100788 0.006425193 0 0 0 0
878750000 0.863504832 -0.334123616 0.00157876 0.006249354 0 0 0 0
879500000 0.838056192 -0.391024128 -0.0003427 0.002990968 0 0 0 0
880250000 0.796337792 -0.459047584 -0.003626655 0.000508979 0 0 0 0
881000000 0.754185984 -0.52285744 -0.007570276 -0.002909966 0 0 0 0
881750000 0.696909248 -0.594179648 -0.01179467 -0.005734321 0 0 0 0
882500000 0.621724416 -0.658500032 -0.02330138 -0.012032886 0 0 0 0
883250000 0.5393152 -0.722528576 -0.035164168 -0.01311391 0 0 0 0
884000000 0.446953696 -0.792225152 -0.055247084 -0.013411606 0 0 0 0
884750000 0.339372192 -0.828934464 -0.084504 -0.009192422 0 0 0 0
885500000 0.198312864 -0.867072768 -0.122429792 0.003753863 0 0 0 0
886250000 0.040662352 -0.872919104 -0.167256368 0.0377033 0 0 0 0
887000000 -0.126413136 -0.854377792 -0.22035944 0.099857808 0 0 0 0
887750000 -0.311784224 -0.779729152 -0.26098544 0.212777808 0 0 0 0
888500000 -0.480892128 -0.620850752 -0.251031904 0.374919488 0 0 0 0
889250000 -0.575653312 -0.405659296 -0.144050512 0.5582192 0 0 0 0
890000000 -0.565686848 -0.1617452 0.071429672 0.683370816 0 0 0 0
890750000 -0.451859936 0.036053048 0.333937248 0.697088448 0 0 0 0
891500000 -0.29557248 0.114012576 0.572061888 0.595661248 0 0 0 0
892250000 -0.165529664 0.121305208 0.745002816 0.42124976 0 0 0 0
893000000 -0.086068152 0.083259048 0.85096 0.224208032 0 0 0 0
893750000 -0.053144012 0.046317116 0.890596992 0.015846492 0 0 0 0
894500000 -0.042477268 0.024836552 0.885366464 -0.179066928 0 0 0 0
895250000 -0.051825672 0.016945838 0.831637632 -0.354530944 0 0 0 0
896000000 -0.048912264 0.013825416 0.748336192 -0.512625888 0 0 0 0
896750000 -0.05629 0.021012324 0.644797056 -0.63725536 0 0 0 0
897500000 -0.046336048 0.03163942 0.522678624 -0.74229728 0 0 0 0
898250000 -0.034412072 0.049340812 0.389270112 -0.820635776 0 0 0 0
899000000 -0.022811572 0.052694996 0.257258944 -0.86958272 0 0 0 0
899750000 -0.009929798 0.055274668 0.113440512 -0.905835968 0 0 0 0
900500000 -0.000372054 0.049710876 -0.016608418 -0.909573824 0 0 0 0
901250000 0.006807084 0.049560712 -0.148669632 -0.900508736 0 0 0 0
902000000 0.015293402 0.036560832 -0.278819424 -0.869917376 0 0 0 0
902750000 0.01416411 0.025153928 -0.398582592 -0.82905568 0 0 0 0
903500000 0.009203066 0.020872454 -0.51145888 -0.76707008 0 0 0 0
904250000 0.008865764 0.01623247 -0.612758784 -0.696192704 0 0 0 0
905000000 -0.00300635 0.013845604 -0.698859136 -0.606530176 0 0 0 0
905750000 -0.008878722 0.01204667 -0.775441088 -0.507788288 0 0 0 0
906500000 -0.021490676 0.012033104 -0.83635232 -0.40233328 0 0 0 0
907250000 -0.033811044 0.022281822 -0.88177088 -0.289719424 0 0 0 0
908000000 -0.040406412 0.028261416 -0.911647232 -0.174298704 0 0 0 0
908750000 -0.040666448 0.04498592 -0.92269184 -0.056727052 0 0 0 0
909500000 -0.047124384 0.049209604 -0.923525312 0.06059876 0 0 0 0
910250000 -0.0445528 0.070491824 -0.906751616 0.176780464 0 0 0 0
911000000 -0.034044232 0.07950616 -0.894843328 0.29388304 0 0 0 0
911750000 -0.040613016 0.083737576 -0.837149504 0.386607808 0 0 0 0
912500000 -0.021757302 0.092939552 -0.783510848 0.495588992 0 0 0 0
913250000 -0.012731068 0.096953384 -0.718020096 0.576221696 0 0 0 0
914000000 -0.004731798 0.096529808 -0.642326336 0.652815552 0 0 0 0
914750000 0.00621712 0.089912344 -0.561214016 0.725823488 0 0 0 0
915500000 0.015624654 0.086831136 -0.466692192 0.790274112 0 0 0 0
916250000 0.02160865 0.082535576 -0.365894528 0.845075712 0 0 0 0
917000000 0.021795286 0.07241868 -0.260414304 0.880521664 0 0 0 0
917750000 0.018046804 0.058594756 -0.145998384 0.907674432 0 0 0 0
918500000 0.014308374 0.050973728 -0.039069832 0.915164608 0 0 0 0
919250000 0.014881078 0.048341568 0.078895864 0.914732544 0 0 0 0
920000000 0.00969668 0.038413588 0.191969696 0.897392256 0 0 0 0
920750000 -0.002040508 0.036316512 0.307316256 0.864029888 0 0 0 0
921500000 -0.0083311 0.03488756 0.414894592 0.81835392 0 0 0 0
922250000 -0.016467974 0.032390162 0.520731616 0.756506368 0 0 0 0
923000000 -0.028881316 0.039467996 0.612284864 0.677396992 0 0 0 0
923750000 -0.032897472 0.040722688 0.700140864 0.593793856 0 0 0 0
924500000 -0.044768924 0.053647404 0.775047232 0.48942464 0 0 0 0
925250000 -0.0435798 0.059735152 0.831790272 0.379071104 0 0 0 0
926000000 -0.041367072 0.061894308 0.874010432 0.256523184 0 0 0 0
926750000 -0.03659196 0.068700368 0.91235648 0.119669496 0 0 0 0
927500000 -0.03058848 0.07938968 0.90514656 0.00109306 0 0 0 0
928250000 -0.018598946 0.075079184 0.89794976 -0.134732096 0 0 0 0
929000000 -0.013444838 0.07035188 0.86306176 -0.269494656 0 0 0 0
929750000 -0.006698645 0.06599208 0.811236672 -0.399604512 0 0 0 0
930500000 0.007051568 0.054081928 0.73337952 -0.523372416 0 0 0 0
931250000 0.007806402 0.032800414 0.637691392 -0.641243264 0 0 0 0
932000000 0.005935725 0.018212468 0.513001568 -0.744486464 0 0 0 0
932750000 -0.010434314 0.007335875 0.405686752 -0.8144192 0 0 0 0
933500000 -0.018399326 -0.018789316 0.203340528 -0.88119328 0 0 0 0
934250000 -0.041634876 -0.036711228 0.0166367 -0.901975424 0 0 0 0
935000000 -0.079329776 -0.045202864 -0.182228704 -0.882725696 0 0 0 0
935750000 -0.112562608 -0.02705569 -0.381097536 -0.808366912 0 0 0 0
936500000 -0.154792704 0.008080096 -0.56775008 -0.67597152 0 0 0 0
937250000 -0.17248472 0.073805016 -0.721442432 -0.480168928 0 0 0 0
938000000 -0.152830512 0.167180048 -0.805770176 -0.226656016 0 0 0 0
938750000 -0.06125108 0.282454784 -0.78849184 0.057955144 0 0 0 0
939500000 0.166393824 0.341655776 -0.635206784 0.326552256 0 0 0 0
940250000 0.462686304 0.200531392 -0.3710432 0.485900224 0 0 0 0
941000000 0.623262784 -0.183355264 -0.079735816 0.4625944 0 0 0 0
941750000 0.462735392 -0.59376416 0.099341128 0.30462704 0 0 0 0
942500000 0.147735136 -0.791880064 0.130249176 0.139815824 0 0 0 0
943250000 -0.163670336 -0.81438336 0.094661344 0.044605532 0 0 0 0
944000000 -0.392765984 -0.74633024 0.047176624 0.00727601 0 0 0 0
944750000 -0.572539968 -0.641424512 0.018037212 -0.002648751 0 0 0 0
945500000 -0.69625024 -0.523102944 -0.00029994 2.3729e-05 0 0 0 0
946250000 -0.778674624 -0.397396128 -0.005460632 0.004325677 0 0 0 0
947000000 -0.84387328 -0.28111744 -0.00850164 0.006840889 0 0 0 0
947750000 -0.878180352 -0.167708032 -0.006674059 0.006799602 0 0 0 0
948500000 -0.895946176 -0.071587536 -0.00503743 0.006105328 0 0 0 0
949250000 -0.901216256 0.02359415 -0.005081021 0.004345985 0 0 0 0
950000000 -0.9082048 0.108789848 -0.00417041 0.003312105 0 0 0 0
