# HZ S RI R 50
430000000 -1.245969776 0.466171424 -0.004939289 -0.000951993 0 0 0 0
440700000 -1.15641808 0.68201728 -0.004366449 -0.0012093 0 0 0 0
451400000 -1.024783254 0.878221888 -0.004502733 -0.001261767 0 0 0 0
462100000 -0.861135808 1.05121064 -0.00449696 -0.001502501 0 0 0 0
472800000 -0.661040896 1.19084584 -0.004641441 -0.001277979 0 0 0 0
483500000 -0.438555072 1.28600096 -0.004438165 -0.001805744 0 0 0 0
494200000 -0.199121008 1.340551008 -0.004479634 -0.001364868 0 0 0 0
504900000 0.04616086 1.350829472 -0.004773254 -0.001573251 0 0 0 0
515600000 0.288688416 1.309864032 -0.004305076 -0.001195627 0 0 0 0
526300000 0.513445984 1.221019504 -0.004701764 -0.00093442 0 0 0 0
537000000 0.711742208 1.08963132 -0.004318537 -0.001278019 0 0 0 0
547700000 0.880101824 0.927520192 -0.00596408 -0.00126278 0 0 0 0
558400000 1.014607192 0.73897248 -0.004348967 -0.001168864 0 0 0 0
569100000 1.106940392 0.530059264 -0.005219303 -0.000348932 0 0 0 0
579800000 1.158289072 0.313804992 -0.005034588 -0.000621524 0 0 0 0
590500000 1.160788768 0.099195424 -0.00538325 -0.000443289 0 0 0 0
601200000 1.12481344 -0.112892896 -0.004907955 -0.000150714 0 0 0 0
611900000 1.059122204 -0.328002304 -0.004882267 -0.000340841 0 0 0 0
622600000 0.958997312 -0.525365824 -0.004716525 -0.000289257 0 0 0 0
633300000 0.8108 -0.692395072 -0.004187458 -0.000382803 0 0 0 0
644000000 0.636504 -0.833763392 -0.004637304 0.000374564 0 0 0 0
654700000 0.438917152 -0.940199872 -0.004393562 -0.00061226 0 0 0 0
665400000 0.222885648 -1.00156188 -0.003231841 0.00145366 0 0 0 0
676100000 0.0038938 -1.027073026 -0.008401468 0.001501416 0 0 0 0
686800000 -0.21888304 -1.003139854 0.001508111 0.001093065 0 0 0 0
697500000 -0.431663968 -0.93795872 -0.008122405 -0.002733844 0 0 0 0
708200000 -0.628745408 -0.824691136 -0.003114109 -0.000455923 0 0 0 0
718900000 -0.784499456 -0.678335424 -0.002841354 0.000298986 0 0 0 0
729600000 -0.918208832 -0.509536672 -0.003384819 7.0617e-05 0 0 0 0
740300000 -1.010090828 -0.315594784 -0.003381318 -0.0011952 0 0 0 0
751000000 -1.066144944 -0.097559184 -0.002305253 0.00055125 0 0 0 0
761700000 -1.072855112 0.125822184 -0.00331807 -0.001907583 0 0 0 0
772400000 -1.030367494 0.348726272 -0.004184477 0.000480792 0 0 0 0
783100000 -0.937875136 0.557658368 -0.003370045 -0.002388569 0 0 0 0
793800000 -0.79748064 0.7383776 -0.003930503 -0.000505157 0 0 0 0
804500000 -0.617804736 0.88651104 -0.003125222 -0.000802894 0 0 0 0
815200000 -0.408674816 0.994356736 -0.004455943 -0.00054171 0 0 0 0
825900000 -0.16550488 1.046700476 -0.005071458 -6.4121e-05 0 0 0 0
836600000 0.098697248 1.034656884 -0.005623103 0.000324966 0 0 0 0
847300000 0.378490848 0.936810048 -0.006777193 0.002325933 0 0 0 0
858000000 0.651462848 0.724772352 -0.0057845 0.005195129 0 0 0 0
868700000 0.857284608 0.335880032 -0.003984932 0.009526164 0 0 0 0
879400000 0.825456768 -0.38982864 -0.000914163 0.003099259 0 0 0 0
890100000 -0.51496528 -0.176899472 0.099870744 0.723940224 0 0 0 0
900800000 0.044492336 0.037547836 -0.064943344 -0.916131648 0 0 0 0
911500000 -0.03123241 0.080040488 -0.86109344 0.356328064 0 0 0 0
922200000 0.013274116 0.007465773 0.51372672 0.77665056 0 0 0 0
932900000 -0.012313576 0.120305504 0.334611264 -0.834501824 0 0 0 0
943600000 0.310184512 -0.785154496 0.065142236 0.029710772 0 0 0 0
954300000 -0.868907904 0.184323152 -0.003189025 -0.004793838 0 0 0 0
965000000 -0.500781184 0.766149888 -0.007452947 -0.002573804 0 0 0 0
975700000 -0.082543704 0.913283072 -0.00708279 8.659e-05 0 0 0 0
986400000 0.237739728 0.872643072 -0.004413883 0.000475499 0 0 0 0
997100000 0.480048096 0.750680576 -0.004715763 0.000343159 0 0 0 0
1007800000 0.666407808 0.579943616 -0.002636515 -0.000848434 0 0 0 0
1018500000 0.778618112 0.406123296 -0.003043579 -0.000183928 0 0 0 0
1029200000 0.84415552 0.19667056 -0.002470423 5.9771e-05 0 0 0 0
1039900000 0.859417408 -0.011265142 -0.002566744 0.000206532 0 0 0 0
1050600000 0.832946368 -0.211967312 0.000262304 -6.215e-06 0 0 0 0
1061300000 0.774062656 -0.40321152 -0.001967043 -0.003338752 0 0 0 0
1072000000 0.667788352 -0.5722752 -0.0020043 -0.003264994 0 0 0 0
1082700000 0.520191616 -0.723662272 -0.000196991 -0.003028471 0 0 0 0
1093400000 0.371548736 -0.832167296 0.002276286 -0.004065526 0 0 0 0
1104100000 0.171869168 -0.918706688 -0.0036178 -0.002496415 0 0 0 0
1114800000 -0.054446144 -0.936052032 -0.018418348 0.004491366 0 0 0 0
1125500000 -0.232246928 -0.923184576 0.019480722 6.1156e-05 0 0 0 0
1136200000 -0.421317376 -0.856261568 -0.001652862 -0.020363802 0 0 0 0
1146900000 -0.579814464 -0.755534464 -0.025273172 -0.006789448 0 0 0 0
1157600000 -0.722926528 -0.624258688 -0.008511582 0.016098448 0 0 0 0
1168300000 -0.807388416 -0.458521088 0.015683918 -0.010961968 0 0 0 0
1179000000 -0.854669312 -0.33390896 -0.003945939 0.000438468 0 0 0 0
1189700000 -0.946441856 -0.146062896 -0.005395048 -0.00331876 0 0 0 0
1200400000 -0.93670464 0.042383892 -0.006439341 -0.002098745 0 0 0 0
1211100000 -0.878818816 0.221918992 -0.001883097 -0.00349775 0 0 0 0
1221800000 -0.817295488 0.372697856 -0.002553194 -0.0017306 0 0 0 0
1232500000 -0.721780544 0.492006112 -0.005551791 -0.000150619 0 0 0 0
1243200000 -0.599635968 0.592761408 -0.000194394 -0.00412838 0 0 0 0
1253900000 -0.480281536 0.655470464 -0.007600734 0.004035794 0 0 0 0
1264600000 -0.356306368 0.70939488 -0.004594929 -0.001435473 0 0 0 0
1275300000 -0.21060864 0.752240576 0.003679006 -0.007517012 0 0 0 0
1286000000 -0.073360576 0.75459488 0.000337734 -0.00373932 0 0 0 0
1296700000 0.0443892 0.743501312 -0.003880104 0.001063211 0 0 0 0
1307400000 0.18249496 0.71009824 0.00139711 -0.003584235 0 0 0 0
1318100000 0.288997472 0.635938304 -0.001372126 -0.002511144 0 0 0 0
1328800000 0.409448 0.543654784 -0.000632814 -0.002182487 0 0 0 0
1339500000 0.522378848 0.445015584 -0.00214988 -0.006456999 0 0 0 0
1350200000 0.583636992 0.3319888 -0.003345939 -0.004856078 0 0 0 0
1360900000 0.662394688 0.197322944 0.001692106 -0.001377373 0 0 0 0
1371600000 0.707314816 0.030157256 4.0307e-05 -0.005382379 0 0 0 0
1382300000 0.714467136 -0.112668056 -0.005819164 -0.005646112 0 0 0 0
1393000000 0.711544192 -0.255365584 -0.002161122 -0.007582093 0 0 0 0
1403700000 0.675973568 -0.44102144 0.004617859 0.000934708 0 0 0 0
1414400000 0.621776832 -0.615478016 0.002388987 -0.004245152 0 0 0 0
1425100000 0.525941088 -0.724887168 0.002941949 -0.018706308 0 0 0 0
1435800000 0.432909824 -0.846624896 -0.000739144 -0.006493957 0 0 0 0
1446500000 0.272013344 -0.954033984 -0.000866286 -0.005916547 0 0 0 0
1457200000 0.355811872 -1.319501152 -0.01627456 0.0063845 0 0 0 0
1467900000 0.094832504 -1.359443904 0.009745888 -0.010813712 0 0 0 0
1478600000 -0.123720816 -1.34571744 -0.001696759 0.004354449 0 0 0 0
1489300000 -0.355590336 -1.315796864 -0.011989676 -0.018010708 0 0 0 0
1500000000 -0.509530784 -1.194823616 -0.00976471 -0.009930742 0 0 0 0
