# HZ S RI R 50
890000000 -0.322984128 0.506615392
890600000 -0.31583712 0.50055104
891200000 -0.314674656 0.497424384
891800000 -0.310377728 0.50009824
892400000 -0.308085664 0.49576576
893000000 -0.303139232 0.49773136
893600000 -0.30250336 0.489605696
894200000 -0.294975232 0.490851584
894800000 -0.290620576 0.487514976
895400000 -0.293042752 0.48594992
896000000 -0.284512 0.481616832
896600000 -0.285690112 0.47656624
897200000 -0.28115088 0.480510144
897800000 -0.277198272 0.474471904
898400000 -0.277639008 0.476601632
899000000 -0.27105712 0.47213632
899600000 -0.269234816 0.468452736
900200000 -0.269424896 0.464366432
900800000 -0.268561536 0.46291904
901400000 -0.267719024 0.458029984
902000000 -0.262456 0.457966016
902600000 -0.264361472 0.449772928
903200000 -0.26083792 0.449418528
903800000 -0.251231648 0.451764416
904400000 -0.24821864 0.442148768
905000000 -0.249404096 0.435572032
905600000 -0.251248688 0.443305728
906200000 -0.241824208 0.42904656
906800000 -0.243293168 0.435119232
907400000 -0.243296384 0.427038624
908000000 -0.236625232 0.426198176
908600000 -0.23534504 0.424071936
909200000 -0.236858384 0.424399936
909800000 -0.242837616 0.426561216
910400000 -0.231365424 0.412774656
911000000 -0.229194736 0.413157632
911600000 -0.228836112 0.406010816
912200000 -0.234673376 0.401343648
912800000 -0.225983696 0.395871104
913400000 -0.22966344 0.399082944
914000000 -0.227560176 0.390037568
914600000 -0.22191296 0.392091616
915200000 -0.225149616 0.390208384
915800000 -0.223577904 0.380855104
916400000 -0.223820624 0.376253024
917000000 -0.226825072 0.376272864
917600000 -0.224047984 0.379800544
918200000 -0.220873088 0.367998048
918800000 -0.221970352 0.369937664
919400000 -0.222834848 0.365421888
920000000 -0.221632384 0.3598048
920600000 -0.216255568 0.355847264
921200000 -0.218400576 0.35212736
921800000 -0.216221792 0.354451552
922400000 -0.212591984 0.347884608
923000000 -0.216015424 0.347711232
923600000 -0.218162096 0.34030736
924200000 -0.217868352 0.3421248
924800000 -0.214586384 0.332170784
925400000 -0.218675328 0.33368992
926000000 -0.219370816 0.327907616
926600000 -0.215583248 0.325458496
927200000 -0.218238192 0.316817696
927800000 -0.219552656 0.318321408
928400000 -0.21612536 0.308050496
929000000 -0.2182412 0.30517744
929600000 -0.218542896 0.302122432
930200000 -0.22703784 0.302924384
930800000 -0.22630424 0.299357984
931400000 -0.22653128 0.29279744
932000000 -0.220598672 0.291946464
932600000 -0.222798304 0.286354112
933200000 -0.229593328 0.28832
933800000 -0.228131264 0.277429632
934400000 -0.234299504 0.278390816
935000000 -0.230886 0.273497152
935600000 -0.232376464 0.275967104
936200000 -0.233150544 0.271660512
936800000 -0.240363504 0.265289808
937400000 -0.236943168 0.264395776
938000000 -0.242412576 0.258675552
938600000 -0.240684672 0.260485792
939200000 -0.248889184 0.259555456
939800000 -0.244610608 0.252248352
940400000 -0.252303744 0.255320016
941000000 -0.256089952 0.249947744
941600000 -0.250991408 0.248143664
942200000 -0.254320448 0.244468768
942800000 -0.257965296 0.244487984
943400000 -0.262672448 0.245537344
944000000 -0.264503152 0.244288896
944600000 -0.260797776 0.24107712
945200000 -0.269790624 0.235257168
945800000 -0.271018112 0.238253808
946400000 -0.27345088 0.233245888
947000000 -0.271140768 0.230334768
947600000 -0.276041376 0.237766496
948200000 -0.273159328 0.230860528
948800000 -0.273754112 0.230142416
949400000 -0.275258784 0.229748352
950000000 -0.28244288 0.224772992
