# HZ S RI R 50
890000000 -0.302528256 0.409755552
890600000 -0.303053696 0.40647792
891200000 -0.302841248 0.405977824
891800000 -0.295900512 0.408675616
892400000 -0.300539808 0.40553056
893000000 -0.296896032 0.402911232
893600000 -0.296202176 0.396387488
894200000 -0.297370784 0.394673408
894800000 -0.291068544 0.3981528
895400000 -0.291315104 0.394645184
896000000 -0.289490528 0.392318208
896600000 -0.290961056 0.392178912
897200000 -0.287112576 0.39272736
897800000 -0.287984032 0.388975648
898400000 -0.286273792 0.382101408
899000000 -0.280531744 0.382453184
899600000 -0.280099168 0.380586464
900200000 -0.282208256 0.37903808
900800000 -0.281473856 0.37726368
901400000 -0.27664896 0.376924832
902000000 -0.275455872 0.369612384
902600000 -0.27233056 0.374671392
903200000 -0.2742096 0.37170592
903800000 -0.269529536 0.367304992
904400000 -0.266793072 0.367419648
905000000 -0.267311072 0.36057824
905600000 -0.26757872 0.36400192
906200000 -0.255990032 0.348134592
906800000 -0.264872704 0.352146848
907400000 -0.26483816 0.35722272
908000000 -0.26399344 0.353243648
908600000 -0.257014816 0.343881632
909200000 -0.2605192 0.349919936
909800000 -0.263929808 0.338706848
910400000 -0.258910416 0.340469248
911000000 -0.255091168 0.331320288
911600000 -0.252998144 0.331929056
912200000 -0.259161616 0.327645344
912800000 -0.252810656 0.321064608
913400000 -0.253602416 0.319086784
914000000 -0.2551328 0.323091296
914600000 -0.256944416 0.314707264
915200000 -0.253188544 0.31697088
915800000 -0.25133952 0.308769568
916400000 -0.250205552 0.305922752
917000000 -0.252323888 0.309382304
917600000 -0.257064752 0.30110656
918200000 -0.254047456 0.294795616
918800000 -0.251895376 0.298721824
919400000 -0.253710032 0.289251744
920000000 -0.250516112 0.291137024
920600000 -0.257016784 0.283316384
921200000 -0.25247112 0.286552512
921800000 -0.2591748 0.283823872
922400000 -0.263871968 0.282895936
923000000 -0.258081584 0.277311872
923600000 -0.26541632 0.27371936
924200000 -0.260933728 0.272423904
924800000 -0.261221088 0.26957728
925400000 -0.26011344 0.262125936
926000000 -0.26475296 0.259214432
926600000 -0.262649952 0.255901776
927200000 -0.2677604 0.254067696
927800000 -0.268207424 0.256443888
928400000 -0.265721344 0.249234048
929000000 -0.269814752 0.24718376
929600000 -0.268544928 0.249685264
930200000 -0.270870912 0.245834368
930800000 -0.272302752 0.245209104
931400000 -0.272807232 0.242828528
932000000 -0.280820928 0.237478112
932600000 -0.278441248 0.231473808
933200000 -0.279503424 0.230328448
933800000 -0.285147264 0.232529728
934400000 -0.280296288 0.230839184
935000000 -0.286966176 0.225954944
935600000 -0.291977408 0.225182608
936200000 -0.288452416 0.222665024
936800000 -0.295805856 0.217232928
937400000 -0.289985504 0.217543904
938000000 -0.296134176 0.22162976
938600000 -0.294082112 0.222107792
939200000 -0.296024 0.218781568
939800000 -0.297283232 0.210395488
940400000 -0.30399296 0.209269776
941000000 -0.305107744 0.212559984
941600000 -0.304238176 0.20463952
942200000 -0.307486656 0.20742024
942800000 -0.307984032 0.201498096
943400000 -0.313450336 0.20109288
944000000 -0.313555936 0.198420384
944600000 -0.310309728 0.204493696
945200000 -0.311563808 0.202536784
945800000 -0.317899488 0.200800608
946400000 -0.318160544 0.191605328
947000000 -0.322556032 0.199848512
947600000 -0.323360416 0.192029088
948200000 -0.323489216 0.192295072
948800000 -0.329346368 0.184816832
949400000 -0.326803328 0.186716896
950000000 -0.332406848 0.184752832
