# HZ S RI R 50
902000000 -0.040283092 0.007876891 -0.717047232 0.159989696 0 0 0 0
902260000 -0.03936192 0.00681065 -0.706186176 0.210923376 0 0 0 0
902520000 -0.043176592 0.009300204 -0.692015424 0.260553536 0 0 0 0
902780000 -0.038641052 0.005222883 -0.677248256 0.30890352 0 0 0 0
903040000 -0.040716836 0.00220579 -0.652726976 0.352004384 0 0 0 0
903300000 -0.04215814 -0.003314076 -0.632148224 0.396765184 0 0 0 0
903560000 -0.032623668 -0.004967193 -0.60360352 0.438538528 0 0 0 0
903820000 -0.036550132 -0.01096139 -0.577830912 0.479948928 0 0 0 0
904080000 -0.03990218 -0.009715222 -0.547580736 0.514335456 0 0 0 0
904340000 -0.033042728 -0.015936356 -0.51385296 0.553177024 0 0 0 0
904600000 -0.036929372 -0.011502978 -0.478325504 0.581183936 0 0 0 0
904860000 -0.030666438 -0.0171776 -0.44023616 0.6143472 0 0 0 0
905120000 -0.034330692 -0.024063482 -0.40856272 0.641794176 0 0 0 0
905380000 -0.033222396 -0.021121158 -0.363669824 0.666460416 0 0 0 0
905640000 -0.034763032 -0.023055494 -0.324961952 0.687080384 0 0 0 0
905900000 -0.038643032 -0.028326136 -0.285472064 0.7057488 0 0 0 0
906160000 -0.041319896 -0.028582138 -0.243186176 0.71935424 0 0 0 0
906420000 -0.0463081 -0.025791406 -0.196109088 0.73725856 0 0 0 0
906680000 -0.044117684 -0.022746436 -0.159066352 0.748083584 0 0 0 0
906940000 -0.044851716 -0.024896994 -0.111261008 0.753096384 0 0 0 0
907200000 -0.045463324 -0.021014112 -0.067290336 0.763415936 0 0 0 0
907460000 -0.038320624 -0.017759172 -0.024293334 0.761926976 0 0 0 0
907720000 -0.036563208 -0.020997318 0.019793332 0.769685312 0 0 0 0
907980000 -0.036248648 -0.0216648 0.07208988 0.762583936 0 0 0 0
908240000 -0.034457072 -0.023194012 0.11060956 0.761589376 0 0 0 0
908500000 -0.02575449 -0.021486292 0.151865728 0.759221056 0 0 0 0
908760000 -0.028086888 -0.018151774 0.193470128 0.749942592 0 0 0 0
909020000 -0.023008992 -0.01460021 0.23254544 0.73779168 0 0 0 0
909280000 -0.025099394 -0.015780758 0.271709088 0.724780224 0 0 0 0
909540000 -0.01624443 -0.014936236 0.31179984 0.708751488 0 0 0 0
909800000 -0.00899069 -0.018941162 0.35293776 0.6936256 0 0 0 0
910060000 -0.01401435 -0.023634194 0.390245984 0.673006144 0 0 0 0
910320000 -0.001604836 -0.020918764 0.422797696 0.651336576 0 0 0 0
910580000 0.003476785 -0.025443758 0.458083648 0.630883136 0 0 0 0
910840000 0.005612567 -0.02752203 0.490909952 0.60915616 0 0 0 0
911100000 0.01180788 -0.028826942 0.522438112 0.58386304 0 0 0 0
911360000 0.021294962 -0.033512514 0.554298624 0.556608128 0 0 0 0
911620000 0.01599905 -0.033630224 0.57992672 0.525447616 0 0 0 0
911880000 0.024863856 -0.03447214 0.60744192 0.494701088 0 0 0 0
912140000 0.0293129 -0.04707992 0.634480704 0.464340928 0 0 0 0
912400000 0.024818574 -0.044576364 0.654779648 0.434695616 0 0 0 0
912660000 0.029571422 -0.046542484 0.67655072 0.400044448 0 0 0 0
912920000 0.032901746 -0.057081932 0.698582208 0.36319728 0 0 0 0
913180000 0.038542132 -0.059337792 0.71743488 0.331524192 0 0 0 0
913440000 0.040551824 -0.064318456 0.730792192 0.291773888 0 0 0 0
913700000 0.038417776 -0.073834344 0.74949728 0.256171552 0 0 0 0
913960000 0.037822848 -0.081528608 0.762399872 0.218921936 0 0 0 0
914220000 0.03973758 -0.084464296 0.774455808 0.181474656 0 0 0 0
914480000 0.044971076 -0.08957388 0.781467264 0.140224432 0 0 0 0
914740000 0.0404103 -0.096700408 0.787059136 0.101438016 0 0 0 0
915000000 0.043885356 -0.095890712 0.789433152 0.064360052 0 0 0 0
915260000 0.041143608 -0.097862248 0.799538624 0.024392604 0 0 0 0
915520000 0.041539432 -0.10920964 0.797516032 -0.014848978 0 0 0 0
915780000 0.0357525 -0.10661748 0.7996688 -0.05353692 0 0 0 0
916040000 0.034711052 -0.112229672 0.794945024 -0.095253856 0 0 0 0
916300000 0.033515286 -0.11364512 0.790329792 -0.135899632 0 0 0 0
916560000 0.02601106 -0.12083692 0.778596672 -0.172542832 0 0 0 0
916820000 0.027627752 -0.119850712 0.77339552 -0.210133088 0 0 0 0
917080000 0.02125803 -0.124409536 0.765315968 -0.247866048 0 0 0 0
917340000 0.020752426 -0.125916096 0.754006912 -0.28804 0 0 0 0
917600000 0.018802442 -0.124257776 0.735684544 -0.322618144 0 0 0 0
917860000 0.014525564 -0.125757608 0.716840896 -0.360333728 0 0 0 0
918120000 0.017073986 -0.12700196 0.7008464 -0.392273088 0 0 0 0
918380000 0.016174934 -0.128181872 0.678583808 -0.424658464 0 0 0 0
918640000 0.011444326 -0.123771872 0.654910272 -0.461125664 0 0 0 0
918900000 0.011942362 -0.123732056 0.632850112 -0.489526656 0 0 0 0
919160000 0.010119112 -0.124781992 0.607895936 -0.521372544 0 0 0 0
919420000 0.012184016 -0.12680988 0.5797648 -0.548513024 0 0 0 0
919680000 0.005379985 -0.127644304 0.554570688 -0.576503872 0 0 0 0
919940000 0.009171398 -0.122494728 0.520590304 -0.60215488 0 0 0 0
920200000 0.004283659 -0.1231666 0.496717216 -0.630955456 0 0 0 0
920460000 0.010227398 -0.113352896 0.464032736 -0.650468736 0 0 0 0
920720000 0.014108188 -0.112515096 0.42958416 -0.673677056 0 0 0 0
920980000 0.012909856 -0.11640068 0.396526304 -0.691317184 0 0 0 0
921240000 0.011052214 -0.11485688 0.366048192 -0.714924352 0 0 0 0
921500000 0.019329456 -0.104807424 0.330797248 -0.731282752 0 0 0 0
921760000 0.016747328 -0.107117816 0.292703616 -0.74764 0 0 0 0
922020000 0.022181322 -0.101488776 0.251886608 -0.761133696 0 0 0 0
922280000 0.026458734 -0.09947992 0.214063136 -0.772013824 0 0 0 0
922540000 0.027713792 -0.099675192 0.177852096 -0.785396992 0 0 0 0
922800000 0.038662852 -0.09696504 0.13583136 -0.788165824 0 0 0 0
923060000 0.037693264 -0.102022192 0.093398424 -0.792881728 0 0 0 0
923320000 0.044024376 -0.098994528 0.057632832 -0.796611904 0 0 0 0
923580000 0.052433292 -0.099107304 0.01881963 -0.802085888 0 0 0 0
923840000 0.05799424 -0.100720832 -0.021974862 -0.801618304 0 0 0 0
924100000 0.067052044 -0.099136576 -0.063091456 -0.79779488 0 0 0 0
924360000 0.07455552 -0.109665864 -0.101912376 -0.79367616 0 0 0 0
924620000 0.081178904 -0.110145496 -0.142199264 -0.788280768 0 0 0 0
924880000 0.088223872 -0.117300216 -0.182089232 -0.777452544 0 0 0 0
925140000 0.094583768 -0.065213324 -0.235510688 -0.741828352 0 0 0 0
925400000 0.094682664 -0.12484956 -0.257640832 -0.753873728 0 0 0 0
925660000 0.103451032 -0.127077432 -0.29584272 -0.739754368 0 0 0 0
925920000 0.1071712 -0.140669472 -0.334448768 -0.722080448 0 0 0 0
926180000 0.100796504 -0.14409648 -0.366466368 -0.702200384 0 0 0 0
926440000 0.105422984 -0.143809856 -0.403622208 -0.682993216 0 0 0 0
926700000 0.114371624 -0.151222192 -0.435028544 -0.660164672 0 0 0 0
926960000 0.111596256 -0.16857456 -0.467801952 -0.6373088 0 0 0 0
927220000 0.107543416 -0.171007968 -0.499784096 -0.610784768 0 0 0 0
927480000 0.112809296 -0.175164992 -0.530836768 -0.582900032 0 0 0 0
927740000 0.110037904 -0.181459936 -0.557769152 -0.552622656 0 0 0 0
928000000 0.108695152 -0.193313232 -0.586037248 -0.522883904 0 0 0 0
