# HZ S RI R 50
885000000 -0.814699968 0.017362674 0.002810351 0.004685883 0 0 0 0
885850000 -0.854915136 0.028150566 0.004837257 0.003661329 0 0 0 0
886700000 -0.851967424 0.135465552 -0.000595188 0.001680198 0 0 0 0
887550000 -0.8270528 0.226895664 -0.001687775 0.001408777 0 0 0 0
888400000 -0.782942848 0.327434624 -0.010667386 0.000636875 0 0 0 0
889250000 -0.686588992 0.435826464 -0.0379064 0.00629615 0 0 0 0
890100000 -0.515580064 0.507520192 -0.090698208 0.067126416 0 0 0 0
890950000 -0.388073376 0.390664448 -0.005214475 0.243796416 0 0 0 0
891800000 -0.457771872 0.416457696 0.209292208 0.207218544 0 0 0 0
892650000 -0.36855904 0.521314368 0.30914832 0.087426808 0 0 0 0
893500000 -0.2080328 0.560884032 0.368090272 -0.039539024 0 0 0 0
894350000 -0.028768672 0.525855136 0.389517472 -0.19845056 0 0 0 0
895200000 0.117755712 0.38885008 0.339895968 -0.383121728 0 0 0 0
896050000 0.159972768 0.221964896 0.197014272 -0.557081984 0 0 0 0
896900000 0.125406864 0.08695048 -0.023245692 -0.646439296 0 0 0 0
897750000 0.061026188 0.011063232 -0.262081392 -0.631088128 0 0 0 0
898600000 -0.002540023 -0.013696314 -0.463606752 -0.532950624 0 0 0 0
899450000 -0.032290742 -0.007384858 -0.610776128 -0.379829248 0 0 0 0
900300000 -0.049660124 -0.001209632 -0.697944256 -0.201420064 0 0 0 0
901150000 -0.06151988 0.002829244 -0.734940928 -0.021598012 0 0 0 0
902000000 -0.057238016 0.006836487 -0.725089664 0.156848816 0 0 0 0
902850000 -0.048727476 0.004117656 -0.673529984 0.323975488 0 0 0 0
903700000 -0.048533056 -0.00485558 -0.598814528 0.458699808 0 0 0 0
904550000 -0.044160936 -0.009445798 -0.494620704 0.574743872 0 0 0 0
905400000 -0.046531388 -0.013303094 -0.372906144 0.671220096 0 0 0 0
906250000 -0.049107688 -0.017602182 -0.237134848 0.730196032 0 0 0 0
907100000 -0.038675288 -0.01846122 -0.092516424 0.76774336 0 0 0 0
907950000 -0.031211826 -0.015941804 0.047250508 0.769469184 0 0 0 0
908800000 -0.023349904 -0.011552602 0.191584464 0.753145856 0 0 0 0
909650000 -0.010341232 -0.019174368 0.322830912 0.711684032 0 0 0 0
910500000 0.004367701 -0.030595518 0.442519264 0.648280704 0 0 0 0
911350000 0.012926902 -0.038835152 0.550697664 0.56908896 0 0 0 0
912200000 0.022047136 -0.050349272 0.638670528 0.468871712 0 0 0 0
913050000 0.029568014 -0.072322336 0.706460672 0.360170016 0 0 0 0
913900000 0.038538248 -0.085591528 0.761572224 0.2376444 0 0 0 0
914750000 0.037612868 -0.101624168 0.795548224 0.11304 0 0 0 0
915600000 0.02975211 -0.117582176 0.803365568 -0.01888606 0 0 0 0
916450000 0.020278922 -0.123889992 0.791054656 -0.149222752 0 0 0 0
917300000 0.005807082 -0.130941976 0.760384192 -0.276218496 0 0 0 0
918150000 0.000815988 -0.130539792 0.702439872 -0.3882952 0 0 0 0
919000000 -0.000724053 -0.129163224 0.629832128 -0.49613264 0 0 0 0
919850000 -0.00154756 -0.115564048 0.5449856 -0.593597312 0 0 0 0
920700000 0.004191695 -0.105050328 0.443696256 -0.670855296 0 0 0 0
921550000 0.011821378 -0.096396912 0.33196128 -0.736310336 0 0 0 0
922400000 0.026528022 -0.09424908 0.201494896 -0.768760256 0 0 0 0
923250000 0.046292824 -0.091771128 0.077177552 -0.79999712 0 0 0 0
924100000 0.073574344 -0.098568912 -0.054315804 -0.802306752 0 0 0 0
924950000 0.092577216 -0.116243592 -0.182934736 -0.782573504 0 0 0 0
925800000 0.103971928 -0.13289024 -0.308408288 -0.736712832 0 0 0 0
926650000 0.111237824 -0.156668368 -0.421133824 -0.673624448 0 0 0 0
927500000 0.110336424 -0.187320432 -0.526261856 -0.589338688 0 0 0 0
928350000 0.110607336 -0.205355168 -0.617279424 -0.488254368 0 0 0 0
929200000 0.090014128 -0.211915856 -0.692125056 -0.365287392 0 0 0 0
930050000 0.074446144 -0.217165888 -0.734251008 -0.2402264 0 0 0 0
930900000 0.051487968 -0.202380352 -0.761968064 -0.092708736 0 0 0 0
931750000 0.057737384 -0.17631536 -0.75405344 0.053503752 0 0 0 0
932600000 0.07191836 -0.134156096 -0.707233536 0.200101136 0 0 0 0
933450000 0.115401216 -0.108559952 -0.623112448 0.333212192 0 0 0 0
934300000 0.190535504 -0.078296824 -0.510231552 0.433029824 0 0 0 0
935150000 0.28059344 -0.10626264 -0.375604352 0.493346944 0 0 0 0
936000000 0.35653632 -0.141413216 -0.248697344 0.52466464 0 0 0 0
936850000 0.449401472 -0.22942832 -0.113265824 0.515365952 0 0 0 0
937700000 0.49852672 -0.349665824 0.003159806 0.46980512 0 0 0 0
938550000 0.508643328 -0.465075264 0.082472864 0.40232528 0 0 0 0
939400000 0.48245696 -0.595749952 0.1300434 0.328750688 0 0 0 0
940250000 0.421087424 -0.689280256 0.156691456 0.260394368 0 0 0 0
941100000 0.347956384 -0.774384576 0.166385056 0.201100368 0 0 0 0
941950000 0.279351488 -0.829574208 0.161930704 0.149744832 0 0 0 0
942800000 0.199485424 -0.87501472 0.154529312 0.111751064 0 0 0 0
943650000 0.125102712 -0.895104704 0.144309968 0.079919664 0 0 0 0
944500000 0.050040792 -0.917479232 0.129707096 0.053165896 0 0 0 0
945350000 -0.019010636 -0.926395328 0.115692336 0.034664444 0 0 0 0
946200000 -0.07769664 -0.926137344 0.102353248 0.022445066 0 0 0 0
947050000 -0.13628128 -0.923885952 0.089289328 0.011816424 0 0 0 0
947900000 -0.195470192 -0.919066112 0.079695304 0.004324455 0 0 0 0
948750000 -0.238735408 -0.905676608 0.068972848 -0.001918638 0 0 0 0
949600000 -0.288698048 -0.893019968 0.0593607 -0.005384166 0 0 0 0
950450000 -0.33433728 -0.879529472 0.051910804 -0.007807149 0 0 0 0
951300000 -0.380939584 -0.864881472 0.045204896 -0.009805412 0 0 0 0
952150000 -0.418228032 -0.842152448 0.039446324 -0.011605352 0 0 0 0
953000000 -0.454580992 -0.822318976 0.033151854 -0.010408514 0 0 0 0
953850000 -0.484584736 -0.802754432 0.027046088 -0.010761968 0 0 0 0
954700000 -0.517127328 -0.77782272 0.026144662 -0.01176093 0 0 0 0
955550000 -0.552625344 -0.768468864 0.020436506 -0.010947632 0 0 0 0
956400000 -0.57618144 -0.73427616 0.016442786 -0.009842866 0 0 0 0
957250000 -0.594160768 -0.715403392 0.016493436 -0.009485304 0 0 0 0
958100000 -0.6168704 -0.692966016 0.01386102 -0.010023478 0 0 0 0
958950000 -0.64260928 -0.671460032 0.01230373 -0.009527672 0 0 0 0
959800000 -0.670281728 -0.648379968 0.011992904 -0.00968824 0 0 0 0
960650000 -0.688355776 -0.622270464 0.008343896 -0.006588414 0 0 0 0
961500000 -0.701128256 -0.597299136 0.007792269 -0.008891638 0 0 0 0
962350000 -0.72091008 -0.573100416 0.008068218 -0.007479267 0 0 0 0
963200000 -0.73611936 -0.55031072 0.008311485 -0.007542988 0 0 0 0
964050000 -0.74950912 -0.529680608 0.005782296 -0.005481943 0 0 0 0
964900000 -0.7645232 -0.51144272 0.006078994 -0.006303039 0 0 0 0
965750000 -0.781922816 -0.478892992 0.003584557 -0.00813732 0 0 0 0
966600000 -0.7877376 -0.455588928 0.00601382 -0.00512057 0 0 0 0
967450000 -0.80269696 -0.42414 0.004116318 -0.00442706 0 0 0 0
968300000 -0.809882368 -0.406225536 0.00418495 -0.005079974 0 0 0 0
969150000 -0.818223552 -0.38675936 0.002173317 -0.004708819 0 0 0 0
970000000 -0.828111104 -0.353314624 0.003700076 -0.004715026 0 0 0 0
