# HZ S RI R 50
430000000 1.286926496 -0.080324808 -0.004207509 -0.001186081 0 0 0 0
440700000 1.197753072 -0.336760064 -0.004264988 -0.000981128 0 0 0 0
451400000 1.065181136 -0.562647616 -0.004159621 -0.001323172 0 0 0 0
462100000 0.888590784 -0.752679616 -0.004387735 -0.001216347 0 0 0 0
472800000 0.685216832 -0.90343712 -0.004231958 -0.001547519 0 0 0 0
483500000 0.458296928 -1.007143259 -0.004640526 -0.001325294 0 0 0 0
494200000 0.22074816 -1.062224864 -0.004916579 -0.001720499 0 0 0 0
504900000 -0.0201613 -1.073756816 -0.004958902 -0.001749644 0 0 0 0
515600000 -0.250936656 -1.041896464 -0.005500323 -0.001398143 0 0 0 0
526300000 -0.469060736 -0.967260352 -0.005630414 -0.001049309 0 0 0 0
537000000 -0.662583552 -0.852436032 -0.004518588 -0.001384215 0 0 0 0
547700000 -0.825965376 -0.70755808 -0.004799596 7.9683e-05 0 0 0 0
558400000 -0.956260352 -0.537763392 -0.006122103 -0.000727523 0 0 0 0
569100000 -1.051222444 -0.34941104 -0.004995114 -0.000587734 0 0 0 0
579800000 -1.108513592 -0.149121408 -0.004580356 -0.000252959 0 0 0 0
590500000 -1.117996336 0.058652276 -0.004442205 -0.000141706 0 0 0 0
601200000 -1.095725896 0.264908432 -0.004389738 -0.00080591 0 0 0 0
611900000 -1.028266072 0.452290848 -0.003886121 -0.000528195 0 0 0 0
622600000 -0.928931136 0.6353712 -0.003915206 -0.000577867 0 0 0 0
633300000 -0.80868032 0.78750848 -0.003579576 -0.000560685 0 0 0 0
644000000 -0.652450112 0.916877632 -0.004017603 -0.001706472 0 0 0 0
654700000 -0.474403232 1.010512234 -0.003276188 -6.6416e-05 0 0 0 0
665400000 -0.288070528 1.06356156 -0.003500241 -0.001423001 0 0 0 0
676100000 -0.098436824 1.095199824 -0.002379643 0.001828847 0 0 0 0
686800000 0.100768848 1.083322168 -0.004862255 -0.005080406 0 0 0 0
697500000 0.298133408 1.035565972 -0.002703746 0.001465775 0 0 0 0
708200000 0.480565728 0.95035648 -0.003470685 -0.002523169 0 0 0 0
718900000 0.640292736 0.825809088 -0.00344009 -0.001844102 0 0 0 0
729600000 0.777138112 0.680308736 -0.003213085 -0.00223637 0 0 0 0
740300000 0.881977344 0.509952 -0.003612263 -0.002529496 0 0 0 0
751000000 0.949448576 0.32577824 -0.002550619 -0.002330335 0 0 0 0
761700000 0.979000704 0.1323386 -0.004921763 -0.003329987 0 0 0 0
772400000 0.985001792 -0.061478944 -0.002809343 -0.001798857 0 0 0 0
783100000 0.94691072 -0.26346088 -0.004452133 -0.003559432 0 0 0 0
793800000 0.862086656 -0.462236192 -0.004941081 -0.002983688 0 0 0 0
804500000 0.738070336 -0.630216768 -0.005462762 -0.002311167 0 0 0 0
815200000 0.589684672 -0.76720096 -0.005710636 -0.001605138 0 0 0 0
825900000 0.40391856 -0.892947904 -0.005232649 -0.001054995 0 0 0 0
836600000 0.15365072 -0.95991744 -0.006490602 0.000501075 0 0 0 0
847300000 -0.10351216 -0.945295488 -0.00538633 -2.0076e-05 0 0 0 0
858000000 -0.267091072 -0.827131328 -0.004572182 0.002919703 0 0 0 0
868700000 -0.577230976 -0.736014656 -0.004070392 0.003259277 0 0 0 0
879400000 -0.804302464 -0.344667296 -0.004835488 0.003313999 0 0 0 0
890100000 -0.510491488 0.506766496 -0.087194352 0.065141596 0 0 0 0
900800000 -0.052534436 0.00568345 -0.718890048 -0.092524768 0 0 0 0
911500000 0.014571468 -0.037686372 0.567090112 0.5404192 0 0 0 0
922200000 0.02431858 -0.100978256 0.232291008 -0.767477952 0 0 0 0
932900000 0.09768928 -0.122219928 -0.67206496 0.251166432 0 0 0 0
943600000 0.132402208 -0.893258688 0.146260384 0.077650808 0 0 0 0
954300000 -0.496017888 -0.78923072 0.025447138 -0.013403058 0 0 0 0
965000000 -0.75886144 -0.497239296 0.005268762 -0.007325608 0 0 0 0
975700000 -0.82759712 -0.193596624 0.003252098 -0.007494661 0 0 0 0
986400000 -0.80806176 0.004711486 -0.00517967 -0.003377308 0 0 0 0
997100000 -0.771628736 0.191599312 9.0504e-05 0.000579858 0 0 0 0
1007800000 -0.685054336 0.351811296 -0.000713557 -0.000668408 0 0 0 0
1018500000 -0.579851904 0.471452256 0.001074681 -0.000232078 0 0 0 0
1029200000 -0.466542784 0.557250944 0.001304087 -0.00294938 0 0 0 0
1039900000 -0.349305856 0.632162752 0.002335687 -0.002755683 0 0 0 0
1050600000 -0.2078668 0.687354368 0.001040021 -0.006745272 0 0 0 0
1061300000 -0.076452504 0.698563648 0.000768353 -0.003576001 0 0 0 0
1072000000 0.050240864 0.699867648 0.003238934 -0.004771342 0 0 0 0
1082700000 0.163141408 0.687242624 0.001559512 -0.006095959 0 0 0 0
1093400000 0.291079232 0.64837632 0.001566718 -0.00741337 0 0 0 0
1104100000 0.408393152 0.60124256 0.001855724 -0.006764951 0 0 0 0
1114800000 0.521385376 0.544128896 -0.001739209 -0.002798787 0 0 0 0
1125500000 0.623878976 0.43928304 0.003195884 -0.01908401 0 0 0 0
1136200000 0.699095296 0.331596032 -0.012279428 -0.004261732 0 0 0 0
1146900000 0.77190752 0.204866912 0.005249352 0.000784633 0 0 0 0
1157600000 0.80918208 0.056895392 0.008132844 -0.016229074 0 0 0 0
1168300000 0.828564224 -0.083927744 -0.012320016 -0.013539578 0 0 0 0
1179000000 0.812853824 -0.246727888 -0.002870569 -0.006536281 0 0 0 0
1189700000 0.749358912 -0.39745264 -0.001531263 -0.010207556 0 0 0 0
1200400000 0.675392384 -0.527250752 -0.004392682 -0.008833902 0 0 0 0
1211100000 0.581044032 -0.641416256 -0.00422753 -0.007866334 0 0 0 0
1221800000 0.467058272 -0.748496832 -0.006572132 -0.007426348 0 0 0 0
1232500000 0.30139248 -0.811185792 -0.005526656 -0.007699283 0 0 0 0
1243200000 0.162980432 -0.85759392 -0.006765543 -0.004651299 0 0 0 0
1253900000 0.047879964 -0.857456 -0.012973264 -0.001328837 0 0 0 0
1264600000 -0.112598656 -0.864274624 -0.004202551 -0.008139609 0 0 0 0
1275300000 -0.271367968 -0.808331584 -0.006317516 -0.006762768 0 0 0 0
1286000000 -0.420207008 -0.716139648 -0.005978854 0.004513143 0 0 0 0
1296700000 -0.495335104 -0.60192928 -0.00981818 -0.003718757 0 0 0 0
1307400000 -0.584657792 -0.494561984 -0.00276287 -0.001537142 0 0 0 0
1318100000 -0.630910528 -0.3793872 -0.004776069 0.000190119 0 0 0 0
1328800000 -0.664901824 -0.251517648 -0.000204829 -0.000706888 0 0 0 0
1339500000 -0.67296096 -0.13547184 -0.006378846 0.002070957 0 0 0 0
1350200000 -0.68108768 -0.010122912 0.001185222 0.002311402 0 0 0 0
1360900000 -0.67894112 0.109249696 0.001858041 0.003986135 0 0 0 0
1371600000 -0.602156864 0.226442544 -0.002569324 -7.261e-05 0 0 0 0
1382300000 -0.534339008 0.31619824 0.00530263 0.004384093 0 0 0 0
1393000000 -0.461314496 0.425140096 0.006710572 -0.001469611 0 0 0 0
1403700000 -0.352895968 0.509423968 -0.000706325 -0.002990804 0 0 0 0
1414400000 -0.252868944 0.53726496 -0.001093453 -0.006772309 0 0 0 0
1425100000 -0.141007536 0.58823584 0.007051744 -0.000231524 0 0 0 0
1435800000 -0.027555162 0.61588352 0.003560159 -0.001820087 0 0 0 0
1446500000 0.088103168 0.610214464 0.004480935 -0.003162571 0 0 0 0
1457200000 0.008549336 0.718452992 0.001209518 -0.004541509 0 0 0 0
1467900000 0.104372192 0.738733312 0.000782848 -0.008821452 0 0 0 0
1478600000 0.248030448 0.694258304 0.005083515 -0.016164504 0 0 0 0
1489300000 0.417090272 0.647528192 0.005475786 -0.015270522 0 0 0 0
1500000000 0.574516608 0.610332672 0.002669699 -0.00636954 0 0 0 0
