# HZ S RI R 50
890000000 0.104549464 0.503194048
890600000 0.10832644 0.499195616
891200000 0.106995328 0.501129504
891800000 0.120887488 0.488944192
892400000 0.1106466 0.485761248
893000000 0.112670232 0.4773136
893600000 0.118189968 0.470959648
894200000 0.120815744 0.470407936
894800000 0.111872512 0.460428256
895400000 0.12149876 0.455941632
896000000 0.12010264 0.452577216
896600000 0.121000264 0.440755776
897200000 0.122450088 0.436880352
897800000 0.119274144 0.427483616
898400000 0.121630408 0.424281632
899000000 0.118177256 0.418961728
899600000 0.11920272 0.419602432
900200000 0.116712656 0.414410144
900800000 0.122028312 0.408815552
901400000 0.118723976 0.401847744
902000000 0.11974372 0.39466224
902600000 0.123829992 0.388200736
903200000 0.124171432 0.386843552
903800000 0.120201064 0.376021888
904400000 0.1198782 0.369779904
905000000 0.125679568 0.367776608
905600000 0.11519564 0.359373824
906200000 0.128315064 0.337719392
906800000 0.113243656 0.335792224
907400000 0.103040056 0.337317088
908000000 0.10203292 0.327070816
908600000 0.09807868 0.32896848
909200000 0.09387616 0.323993216
909800000 0.088405456 0.315847776
910400000 0.075765304 0.317779392
911000000 0.070294232 0.30152192
911600000 0.065479712 0.313166816
912200000 0.052959224 0.31533872
912800000 0.04595846 0.317489248
913400000 0.049365652 0.313751968
914000000 0.044508736 0.315083456
914600000 0.040472992 0.317764416
915200000 0.029568794 0.321766784
915800000 0.027954408 0.320717216
916400000 0.027366268 0.328145728
917000000 0.029929542 0.326097664
917600000 0.029860466 0.328722432
918200000 0.021535758 0.329810432
918800000 0.022900756 0.334562976
919400000 0.0227728 0.336200192
920000000 0.020799184 0.336223488
920600000 0.018901502 0.336820864
921200000 0.0127228 0.340776096
921800000 0.015026918 0.34097408
922400000 0.013254788 0.35088096
923000000 0.007395487 0.351764544
923600000 0.00967052 0.35325728
924200000 0.010464426 0.350910464
924800000 0.01030253 0.357113984
925400000 0.011682244 0.356709792
926000000 0.007338531 0.36195984
926600000 0.01276189 0.363289984
927200000 0.007229743 0.3574728
927800000 0.016651552 0.365334944
928400000 0.010899448 0.37444624
929000000 0.008681532 0.369066816
929600000 0.008095554 0.370176128
930200000 0.00989348 0.3774056
930800000 0.009521438 0.385887264
931400000 0.005105071 0.386831584
932000000 0.007734072 0.38848976
932600000 0.016160572 0.398006688
933200000 0.015356116 0.403619872
933800000 0.020400654 0.40683264
934400000 0.02031042 0.411908768
935000000 0.027059728 0.4135736
935600000 0.031575628 0.414474464
936200000 0.040782672 0.425416096
936800000 0.046998736 0.419563968
937400000 0.05755134 0.418500608
938000000 0.060828808 0.420047712
938600000 0.068937072 0.413829632
939200000 0.078959648 0.410184192
939800000 0.08017868 0.409076032
940400000 0.082438968 0.402878976
941000000 0.075265176 0.401560192
941600000 0.076956096 0.39388544
942200000 0.081804808 0.396405888
942800000 0.07793436 0.388915616
943400000 0.073265552 0.396886592
944000000 0.076200072 0.39207344
944600000 0.072654368 0.3938328
945200000 0.071226272 0.389479424
945800000 0.071194056 0.395427616
946400000 0.0739298 0.400693312
947000000 0.073434536 0.397469088
947600000 0.071684864 0.401399296
948200000 0.07893916 0.406351968
948800000 0.075492224 0.40680976
949400000 0.077558104 0.414117664
950000000 0.078658 0.420210368
