# HZ S RI R 50
890000000 -0.443714688 0.565226048
890600000 -0.44166416 0.567327232
891200000 -0.4364312 0.5710224
891800000 -0.433042208 0.580786624
892400000 -0.430314816 0.568417344
893000000 -0.424426048 0.571266688
893600000 -0.425755264 0.570682496
894200000 -0.42643504 0.571846144
894800000 -0.419169568 0.563903552
895400000 -0.41697584 0.566687808
896000000 -0.41845536 0.571167808
896600000 -0.41272512 0.566762176
897200000 -0.403168608 0.565544832
897800000 -0.406608928 0.57210144
898400000 -0.40704896 0.56941632
899000000 -0.404584832 0.573881088
899600000 -0.401809728 0.573665408
900200000 -0.398035488 0.570602816
900800000 -0.392739264 0.56831232
901400000 -0.395276768 0.56747552
902000000 -0.39242272 0.5754592
902600000 -0.385156 0.568267456
903200000 -0.385217344 0.57307072
903800000 -0.3802816 0.568646528
904400000 -0.381452224 0.571723584
905000000 -0.373707712 0.567525312
905600000 -0.371805504 0.570933824
906200000 -0.372174592 0.58533984
906800000 -0.367947168 0.564328128
907400000 -0.36810464 0.567812224
908000000 -0.35759056 0.568400192
908600000 -0.361862528 0.571352512
909200000 -0.357005536 0.566168064
909800000 -0.357421056 0.569138496
910400000 -0.352221152 0.57153344
911000000 -0.349894624 0.572633728
911600000 -0.346533984 0.570873216
912200000 -0.342716224 0.56473408
912800000 -0.342117504 0.561264064
913400000 -0.33824512 0.558530944
914000000 -0.339288768 0.559889408
914600000 -0.332265248 0.561280576
915200000 -0.335414656 0.56571264
915800000 -0.325814112 0.566869376
916400000 -0.328960096 0.561838848
917000000 -0.322173248 0.560269504
917600000 -0.320159392 0.56466656
918200000 -0.320056736 0.5560416
918800000 -0.320478208 0.553144768
919400000 -0.315425344 0.560872896
920000000 -0.313252576 0.55074592
920600000 -0.307648896 0.555192768
921200000 -0.307125472 0.55060896
921800000 -0.309245408 0.547119232
922400000 -0.302138112 0.551480832
923000000 -0.305572352 0.552646592
923600000 -0.299586464 0.546732992
924200000 -0.29254928 0.543841536
924800000 -0.292112896 0.548417152
925400000 -0.289247264 0.547980096
926000000 -0.286170528 0.545969216
926600000 -0.284775296 0.540108352
927200000 -0.283187808 0.537750528
927800000 -0.285423264 0.54139488
928400000 -0.28210704 0.541221376
929000000 -0.280176448 0.540329152
929600000 -0.270554848 0.533672704
930200000 -0.277442624 0.535735488
930800000 -0.273366976 0.534635232
931400000 -0.273868896 0.52900864
932000000 -0.268233424 0.531982016
932600000 -0.268544 0.529378048
933200000 -0.261180784 0.532290208
933800000 -0.261043344 0.530455296
934400000 -0.255352976 0.522896288
935000000 -0.254896016 0.525496832
935600000 -0.254780256 0.522466848
936200000 -0.25609368 0.525835872
936800000 -0.249374048 0.519855808
937400000 -0.250249024 0.521902624
938000000 -0.242986816 0.518099904
938600000 -0.244079872 0.517098496
939200000 -0.239414112 0.516245856
939800000 -0.242099856 0.511049632
940400000 -0.242905296 0.509671392
941000000 -0.242185248 0.512582432
941600000 -0.235406864 0.507017376
942200000 -0.238082416 0.507338656
942800000 -0.234235232 0.500380032
943400000 -0.231520992 0.506707712
944000000 -0.227460592 0.499882304
944600000 -0.225704016 0.502120384
945200000 -0.223166096 0.501410848
945800000 -0.224024768 0.500961952
946400000 -0.222277008 0.494357504
947000000 -0.224455744 0.493498112
947600000 -0.215041392 0.490779328
948200000 -0.21333728 0.486790432
948800000 -0.213232144 0.49112688
949400000 -0.209865584 0.483457568
950000000 -0.211602544 0.481433184
