# HZ S RI R 50
885000000 -0.847903744 0.085611392 0.003899515 0.006598488 0 0 0 0
885850000 -0.840681984 0.132135856 0.003958615 0.002466201 0 0 0 0
886700000 -0.820638592 0.231303888 -0.001023709 0.003349372 0 0 0 0
887550000 -0.785470784 0.329338208 -0.00913193 0.001442087 0 0 0 0
888400000 -0.700370816 0.431306208 -0.029262618 0.004073178 0 0 0 0
889250000 -0.564710464 0.51874752 -0.075670792 0.046151044 0 0 0 0
890100000 -0.411751712 0.454770432 -0.03982254 0.212049616 0 0 0 0
890950000 -0.434421344 0.448695904 0.174161248 0.215720784 0 0 0 0
891800000 -0.370972672 0.545159296 0.280809696 0.110157152 0 0 0 0
892650000 -0.224600288 0.595853312 0.337342368 -0.00238201 0 0 0 0
893500000 -0.038932548 0.570727872 0.374323168 -0.14037552 0 0 0 0
894350000 0.11444416 0.463744768 0.357809056 -0.312803968 0 0 0 0
895200000 0.207756704 0.294723232 0.250517008 -0.489670784 0 0 0 0
896050000 0.190092704 0.13202712 0.065338312 -0.613962368 0 0 0 0
896900000 0.12467344 0.036323256 -0.17314776 -0.641972864 0 0 0 0
897750000 0.048939276 -0.000371272 -0.393225632 -0.5733168 0 0 0 0
898600000 0.00750249 -0.01713508 -0.55258048 -0.437497856 0 0 0 0
899450000 -0.02235328 -0.001945621 -0.668312896 -0.26953712 0 0 0 0
900300000 -0.032864504 0.002685717 -0.722988032 -0.090188744 0 0 0 0
901150000 -0.038511 0.004742833 -0.727617536 0.089479624 0 0 0 0
902000000 -0.026964604 0.00581561 -0.695580224 0.25524432 0 0 0 0
902850000 -0.02695771 -0.00124406 -0.635707648 0.408606816 0 0 0 0
903700000 -0.022767636 -0.007043027 -0.534442592 0.528407392 0 0 0 0
904550000 -0.015250982 -0.014229126 -0.416225184 0.630133824 0 0 0 0
905400000 -0.022693564 -0.025947148 -0.290747296 0.705135296 0 0 0 0
906250000 -0.019018952 -0.028195636 -0.150798768 0.750906368 0 0 0 0
907100000 -0.009988894 -0.02271461 -0.009114386 0.77014848 0 0 0 0
907950000 -0.009693676 -0.035552328 0.131858888 0.765587456 0 0 0 0
908800000 0.000246114 -0.03683058 0.26997488 0.729823424 0 0 0 0
909650000 0.01587367 -0.039297552 0.394582624 0.675576128 0 0 0 0
910500000 0.02669229 -0.046839428 0.505309216 0.600696832 0 0 0 0
911350000 0.030906876 -0.064995 0.599230656 0.511187072 0 0 0 0
912200000 0.033466306 -0.078048064 0.681085696 0.403499904 0 0 0 0
913050000 0.038808728 -0.092875008 0.73899328 0.291040288 0 0 0 0
913900000 0.041117444 -0.103183688 0.779196032 0.164419152 0 0 0 0
914750000 0.032213834 -0.119181208 0.797755072 0.034175964 0 0 0 0
915600000 0.016459468 -0.125269752 0.796778688 -0.090787592 0 0 0 0
916450000 0.013861092 -0.12014524 0.773391296 -0.22079736 0 0 0 0
917300000 0.01105487 -0.12882976 0.731082048 -0.337128512 0 0 0 0
918150000 0.010241296 -0.121158032 0.664424448 -0.448276832 0 0 0 0
919000000 0.005712406 -0.119986216 0.580325696 -0.547546368 0 0 0 0
919850000 0.009916972 -0.108333968 0.485456896 -0.63329056 0 0 0 0
920700000 0.020672008 -0.105908576 0.378248928 -0.7011664 0 0 0 0
921550000 0.03130373 -0.099387912 0.262931376 -0.754221312 0 0 0 0
922400000 0.049434856 -0.096873584 0.144156064 -0.782819008 0 0 0 0
923250000 0.070097856 -0.101129856 0.005164027 -0.79674624 0 0 0 0
924100000 0.092812784 -0.1142324 -0.121336816 -0.786318912 0 0 0 0
924950000 0.106958336 -0.134715568 -0.249644848 -0.751733696 0 0 0 0
925800000 0.116136888 -0.16452088 -0.3696264 -0.699577216 0 0 0 0
926650000 0.117257816 -0.191367264 -0.478145952 -0.6266784 0 0 0 0
927500000 0.105793344 -0.212758224 -0.571316032 -0.53098832 0 0 0 0
928350000 0.091962376 -0.218529184 -0.65264416 -0.424173728 0 0 0 0
929200000 0.072512016 -0.22393096 -0.71574112 -0.289753952 0 0 0 0
930050000 0.051064 -0.207191536 -0.746242752 -0.162088688 0 0 0 0
930900000 0.044255024 -0.179427872 -0.75148928 -0.013058812 0 0 0 0
931750000 0.05401212 -0.155030256 -0.715670272 0.136947808 0 0 0 0
932600000 0.087926608 -0.103880416 -0.6580304 0.275581888 0 0 0 0
933450000 0.155468304 -0.075754216 -0.561017408 0.387981728 0 0 0 0
934300000 0.242943856 -0.072681456 -0.431495616 0.469220448 0 0 0 0
935150000 0.347672864 -0.104985448 -0.295425952 0.512258176 0 0 0 0
936000000 0.437044384 -0.17358704 -0.163276944 0.514464864 0 0 0 0
936850000 0.495743488 -0.29152272 -0.045642764 0.477256832 0 0 0 0
937700000 0.520715008 -0.420554016 0.043172904 0.41999824 0 0 0 0
938550000 0.496959072 -0.541033088 0.104769592 0.35166864 0 0 0 0
939400000 0.452448192 -0.651209088 0.138811344 0.282656928 0 0 0 0
940250000 0.391452544 -0.732496384 0.155861888 0.223065408 0 0 0 0
941100000 0.31889328 -0.798470528 0.157858464 0.16991464 0 0 0 0
941950000 0.239809472 -0.85102752 0.153096464 0.128279672 0 0 0 0
942800000 0.161949296 -0.884523008 0.144419088 0.09496532 0 0 0 0
943650000 0.0922816 -0.911178944 0.129991624 0.069369696 0 0 0 0
944500000 0.024859216 -0.919382208 0.120000056 0.04762446 0 0 0 0
945350000 -0.04126132 -0.923367104 0.106744424 0.030771436 0 0 0 0
946200000 -0.101896648 -0.93069088 0.093754608 0.019576292 0 0 0 0
947050000 -0.16067616 -0.921162624 0.081737872 0.008605164 0 0 0 0
947900000 -0.208571024 -0.913718272 0.070697696 0.003639598 0 0 0 0
948750000 -0.262245888 -0.900065344 0.062808892 -0.000534417 0 0 0 0
949600000 -0.30287568 -0.884301568 0.054071868 -0.004174063 0 0 0 0
950450000 -0.346676224 -0.871979904 0.046637 -0.006282113 0 0 0 0
951300000 -0.39084736 -0.85739136 0.04138496 -0.009046152 0 0 0 0
952150000 -0.426223456 -0.841621888 0.035670228 -0.008669154 0 0 0 0
953000000 -0.46352736 -0.816734592 0.030961248 -0.011000074 0 0 0 0
953850000 -0.491358496 -0.793315392 0.02680813 -0.011023044 0 0 0 0
954700000 -0.521115712 -0.772827392 0.023682658 -0.012424298 0 0 0 0
955550000 -0.564400704 -0.756493376 0.016304868 -0.010956304 0 0 0 0
956400000 -0.58029632 -0.73433344 0.017222786 -0.008232452 0 0 0 0
957250000 -0.606128 -0.704426496 0.014239502 -0.006772414 0 0 0 0
958100000 -0.624873792 -0.684010432 0.011207016 -0.008501484 0 0 0 0
958950000 -0.653052544 -0.660450944 0.011528126 -0.00918452 0 0 0 0
959800000 -0.667204672 -0.63433472 0.010226512 -0.006323436 0 0 0 0
960650000 -0.691978688 -0.61885344 0.007745547 -0.005910151 0 0 0 0
961500000 -0.70476512 -0.587526464 0.008591696 -0.007838079 0 0 0 0
962350000 -0.71948928 -0.57610432 0.005583421 -0.007589523 0 0 0 0
963200000 -0.742140608 -0.54177856 0.0061125 -0.006145873 0 0 0 0
964050000 -0.751786048 -0.52114736 0.003773337 -0.0049944 0 0 0 0
964900000 -0.76097472 -0.49841152 0.004416442 -0.00487996 0 0 0 0
965750000 -0.780579264 -0.471363712 0.003662771 -0.005328291 0 0 0 0
966600000 -0.786121536 -0.447553888 0.003636449 -0.004257171 0 0 0 0
967450000 -0.8027328 -0.422039104 0.003439666 -0.005187914 0 0 0 0
968300000 -0.810172864 -0.404965504 0.002852649 -0.004970283 0 0 0 0
969150000 -0.818993984 -0.380740768 0.001932129 -0.003750968 0 0 0 0
970000000 -0.820251392 -0.348097088 0.001299837 -0.003750563 0 0 0 0
