# HZ S RI R 50
430000000 1.292941568 -0.083486984 -0.003985335 -0.001189342 0 0 0 0
440700000 1.202796464 -0.336826464 -0.004322181 -0.001949788 0 0 0 0
451400000 1.067735192 -0.566703296 -0.003582296 -0.001686724 0 0 0 0
462100000 0.890191168 -0.756537472 -0.004814614 -0.001776782 0 0 0 0
472800000 0.688694848 -0.906495424 -0.005099023 -0.001883709 0 0 0 0
483500000 0.45886448 -1.01069975 -0.005017859 -0.001895634 0 0 0 0
494200000 0.218640352 -1.068288448 -0.005354653 -0.001531834 0 0 0 0
504900000 -0.020010322 -1.079226256 -0.005286839 -0.001482765 0 0 0 0
515600000 -0.254538272 -1.045903088 -0.006029965 -0.001281077 0 0 0 0
526300000 -0.4731496 -0.972352512 -0.006000958 -0.001356801 0 0 0 0
537000000 -0.666922432 -0.855611968 -0.005081188 -0.000813593 0 0 0 0
547700000 -0.831962304 -0.709960192 -0.004723049 0.000633138 0 0 0 0
558400000 -0.96380736 -0.538540864 -0.006192062 0.000193257 0 0 0 0
569100000 -1.05638218 -0.351467456 -0.004744205 0.000253004 0 0 0 0
579800000 -1.114992264 -0.148229504 -0.00465306 0.000396342 0 0 0 0
590500000 -1.123923776 0.059339252 -0.003618517 0.000580895 0 0 0 0
601200000 -1.09791672 0.267288512 -0.003655948 -0.000324092 0 0 0 0
611900000 -1.032584786 0.455773184 -0.003320529 -0.000182969 0 0 0 0
622600000 -0.932681024 0.637299328 -0.002984785 -0.000178072 0 0 0 0
633300000 -0.807306368 0.79379264 -0.002709383 -0.000690576 0 0 0 0
644000000 -0.6510144 0.921222656 -0.003053832 -0.00162879 0 0 0 0
654700000 -0.470983648 1.014177084 -0.002177435 -0.000708313 0 0 0 0
665400000 -0.283709888 1.064803124 -0.002578816 -0.001552172 0 0 0 0
676100000 -0.09245056 1.099770304 -0.000854911 0.001576445 0 0 0 0
686800000 0.109249024 1.0846498 -0.004083797 -0.005365805 0 0 0 0
697500000 0.304370336 1.03469944 -0.001448634 0.001034531 0 0 0 0
708200000 0.487302144 0.949544128 -0.00255179 -0.002897304 0 0 0 0
718900000 0.64688768 0.822444032 -0.002950999 -0.003077499 0 0 0 0
729600000 0.784479424 0.67233312 -0.002965557 -0.002821528 0 0 0 0
740300000 0.884052864 0.499649824 -0.003510524 -0.003323102 0 0 0 0
751000000 0.956023808 0.31098368 -0.002365781 -0.003761773 0 0 0 0
761700000 0.980363456 0.114336744 -0.005039916 -0.004403546 0 0 0 0
772400000 0.984274496 -0.080502144 -0.003325944 -0.002655756 0 0 0 0
783100000 0.94601216 -0.281230816 -0.005070944 -0.004404274 0 0 0 0
793800000 0.854053504 -0.477182432 -0.005740448 -0.003563568 0 0 0 0
804500000 0.725775168 -0.646876864 -0.006327538 -0.003509 0 0 0 0
815200000 0.574270848 -0.787562048 -0.00780191 -0.002607116 0 0 0 0
825900000 0.380646016 -0.9046464 -0.007434429 -0.001596856 0 0 0 0
836600000 0.127916488 -0.967754752 -0.007830513 0.000802947 0 0 0 0
847300000 -0.118253592 -0.927972224 -0.007975002 0.000892273 0 0 0 0
858000000 -0.311463616 -0.8397856 -0.006015643 0.003993501 0 0 0 0
868700000 -0.609785408 -0.721184896 -0.004208178 0.005459793 0 0 0 0
879400000 -0.821266112 -0.284541824 -0.004916701 0.009845276 0 0 0 0
890100000 -0.409214272 0.46676912 -0.048273296 0.205565536 0 0 0 0
900800000 -0.035426048 0.009862898 -0.730675968 0.008091122 0 0 0 0
911500000 0.027174066 -0.06013676 0.615867392 0.496726752 0 0 0 0
922200000 0.053605444 -0.088035736 0.172216352 -0.785892544 0 0 0 0
932900000 0.106030416 -0.09240916 -0.633519424 0.314395072 0 0 0 0
943600000 0.100338848 -0.908567936 0.133229824 0.07054144 0 0 0 0
954300000 -0.50647856 -0.790543808 0.025662886 -0.009456572 0 0 0 0
965000000 -0.763738816 -0.490786784 0.005138751 -0.004682391 0 0 0 0
975700000 -0.84142752 -0.188153632 0.003032403 -0.00389537 0 0 0 0
986400000 -0.807330112 0.01891827 -0.003672761 -0.003207613 0 0 0 0
997100000 -0.76895392 0.201986368 -0.000213112 0.002026643 0 0 0 0
1007800000 -0.679017728 0.361807168 0.002219387 -0.00074123 0 0 0 0
1018500000 -0.564566336 0.477007264 0.002047402 -0.001399176 0 0 0 0
1029200000 -0.451342816 0.568642624 0.002719401 -0.002360412 0 0 0 0
1039900000 -0.331878816 0.645525248 0.003971527 -0.00154287 0 0 0 0
1050600000 -0.196227696 0.68617184 0.002464283 -0.004254425 0 0 0 0
1061300000 -0.079619496 0.696618368 0.002820811 -0.00377118 0 0 0 0
1072000000 0.061270632 0.698830976 0.003454 -0.002995171 0 0 0 0
1082700000 0.180464528 0.68373248 0.003740206 -0.008036861 0 0 0 0
1093400000 0.307082752 0.640376704 0.002600011 -0.006585963 0 0 0 0
1104100000 0.406889984 0.598416896 0.004478049 -0.00847733 0 0 0 0
1114800000 0.541007232 0.533191872 -0.001894375 -0.003662853 0 0 0 0
1125500000 0.639699264 0.422244608 0.004800024 -0.017658458 0 0 0 0
1136200000 0.708963008 0.31211024 -0.008490514 -0.004130526 0 0 0 0
1146900000 0.776068608 0.180180672 0.009496726 -0.000315256 0 0 0 0
1157600000 0.810967424 0.02808313 0.011850882 -0.019375958 0 0 0 0
1168300000 0.832125888 -0.104912856 -0.010326156 -0.014735226 0 0 0 0
1179000000 0.811690176 -0.28271008 -0.003110089 -0.01093741 0 0 0 0
1189700000 0.740648896 -0.423314624 -0.002568588 -0.009249722 0 0 0 0
1200400000 0.658061056 -0.562664128 -0.003806394 -0.009643026 0 0 0 0
1211100000 0.562869696 -0.676655744 -0.004240338 -0.011757748 0 0 0 0
1221800000 0.418104448 -0.745939328 -0.007853401 -0.012415274 0 0 0 0
1232500000 0.290109024 -0.826119232 -0.00658086 -0.007819161 0 0 0 0
1243200000 0.14509624 -0.83996704 -0.009517832 -0.010677734 0 0 0 0
1253900000 0.015871266 -0.8541888 -0.014045164 -0.003957149 0 0 0 0
1264600000 -0.14394056 -0.842867008 -0.008780114 -0.008421256 0 0 0 0
1275300000 -0.308046752 -0.783060416 -0.007471271 -0.000851061 0 0 0 0
1286000000 -0.430831936 -0.70613472 -0.013082098 0.002031719 0 0 0 0
1296700000 -0.5409936 -0.58693248 -0.003305589 -0.004881727 0 0 0 0
1307400000 -0.606248192 -0.461328416 -0.012839878 -0.000611581 0 0 0 0
1318100000 -0.640549504 -0.336664544 -0.008758424 0.005719628 0 0 0 0
1328800000 -0.680051264 -0.232965552 -0.005165968 0.00460037 0 0 0 0
1339500000 -0.665137472 -0.12126224 -0.001631334 0.002896235 0 0 0 0
1350200000 -0.687894016 0.02237806 -0.002243801 0.002640996 0 0 0 0
1360900000 -0.658197248 0.148072928 0.002801541 0.006154734 0 0 0 0
1371600000 -0.619467904 0.250095632 -0.000519093 0.000849089 0 0 0 0
1382300000 -0.527390304 0.339477312 0.005386598 0.006285055 0 0 0 0
1393000000 -0.444115584 0.443280384 0.00613954 0.000469946 0 0 0 0
1403700000 -0.334229728 0.513421184 0.006987513 -0.001868032 0 0 0 0
1414400000 -0.217572032 0.578095936 0.004362363 -0.000743578 0 0 0 0
1425100000 -0.104252248 0.608175488 0.010193584 -0.003919342 0 0 0 0
1435800000 0.015993898 0.621580736 0.01161147 -0.002999211 0 0 0 0
1446500000 0.121597064 0.611088128 0.007178854 -0.004780611 0 0 0 0
1457200000 0.05486858 0.73029568 0.0100541 -0.007258714 0 0 0 0
1467900000 0.184634544 0.692985088 0.004358125 -0.01313347 0 0 0 0
1478600000 0.279553344 0.690878912 0.012136004 -0.00447823 0 0 0 0
1489300000 0.480071616 0.657661504 0.007610385 -0.01189737 0 0 0 0
1500000000 0.565544576 0.623468608 0.013660024 -0.01089849 0 0 0 0
