# HZ S RI R 50
902000000 -0.025896444 0.005549859 -0.699649472 0.244276304 0 0 0 0
902260000 -0.032223784 0.00613866 -0.685375424 0.29248208 0 0 0 0
902520000 -0.026039812 0.003443092 -0.663514752 0.339437664 0 0 0 0
902780000 -0.027410988 0.003798823 -0.6427056 0.383531008 0 0 0 0
903040000 -0.024789158 0.007016913 -0.620176384 0.427117536 0 0 0 0
903300000 -0.023936782 0.000197419 -0.592281856 0.466447744 0 0 0 0
903560000 -0.021979642 -0.003309708 -0.563617152 0.507203456 0 0 0 0
903820000 -0.01926438 0.000580424 -0.526477984 0.540754944 0 0 0 0
904080000 -0.014324054 -0.003001627 -0.493427264 0.577811456 0 0 0 0
904340000 -0.013229182 -0.005939696 -0.461116256 0.605351808 0 0 0 0
904600000 -0.0148453 -0.015502684 -0.419807648 0.631047552 0 0 0 0
904860000 -0.016694572 -0.013213714 -0.38018816 0.657243328 0 0 0 0
905120000 -0.014119606 -0.020014068 -0.346103264 0.680965632 0 0 0 0
905380000 -0.011768558 -0.018724444 -0.304139808 0.702183616 0 0 0 0
905640000 -0.013794382 -0.015619232 -0.264966752 0.721164544 0 0 0 0
905900000 -0.019052484 -0.019310364 -0.222313232 0.735607744 0 0 0 0
906160000 -0.018373974 -0.021563184 -0.177191312 0.749177472 0 0 0 0
906420000 -0.01752586 -0.027300092 -0.133950352 0.75770912 0 0 0 0
906680000 -0.014968318 -0.02493913 -0.089417456 0.766339776 0 0 0 0
906940000 -0.008724552 -0.027486218 -0.046397896 0.773433472 0 0 0 0
907200000 -0.008905102 -0.021511274 -0.00194189 0.773740992 0 0 0 0
907460000 -0.004106301 -0.02298783 0.044756324 0.7768272 0 0 0 0
907720000 -0.006672761 -0.029841114 0.084546984 0.770807744 0 0 0 0
907980000 0.006830518 -0.03073914 0.125185696 0.763180928 0 0 0 0
908240000 -0.003536485 -0.029899958 0.169733904 0.756501824 0 0 0 0
908500000 0.003753846 -0.031170488 0.214967472 0.749575872 0 0 0 0
908760000 0.006957262 -0.033814272 0.253925024 0.737197056 0 0 0 0
909020000 0.009398906 -0.033406668 0.29405856 0.723861504 0 0 0 0
909280000 0.011824464 -0.03205806 0.331520256 0.708426624 0 0 0 0
909540000 0.0182319 -0.036109136 0.373125216 0.688574272 0 0 0 0
909800000 0.018648166 -0.039669888 0.408362656 0.668292736 0 0 0 0
910060000 0.019860548 -0.045654628 0.442644544 0.648969984 0 0 0 0
910320000 0.018748972 -0.053149804 0.479170752 0.624095808 0 0 0 0
910580000 0.021525494 -0.056849508 0.510658208 0.599362752 0 0 0 0
910840000 0.03090253 -0.055867424 0.542603392 0.575777792 0 0 0 0
911100000 0.031663202 -0.051945452 0.569977856 0.544723328 0 0 0 0
911360000 0.031579904 -0.056630136 0.599860928 0.517340416 0 0 0 0
911620000 0.03840514 -0.060571116 0.622855552 0.489242688 0 0 0 0
911880000 0.038771076 -0.073584672 0.649712 0.454695328 0 0 0 0
912140000 0.037298188 -0.065968528 0.675202432 0.418146208 0 0 0 0
912400000 0.037 -0.07269576 0.694808512 0.387617216 0 0 0 0
912660000 0.044316768 -0.074711976 0.713579136 0.350121568 0 0 0 0
912920000 0.042127192 -0.08687016 0.729303104 0.318581824 0 0 0 0
913180000 0.03951082 -0.093340328 0.748447168 0.280095008 0 0 0 0
913440000 0.042698284 -0.091265872 0.758968384 0.237197936 0 0 0 0
913700000 0.033710216 -0.09605648 0.773305536 0.208117776 0 0 0 0
913960000 0.033605732 -0.103426664 0.782053568 0.166429664 0 0 0 0
914220000 0.037562192 -0.105423768 0.79230976 0.130117864 0 0 0 0
914480000 0.032128968 -0.108009344 0.79804704 0.09022236 0 0 0 0
914740000 0.030073484 -0.109776088 0.800722688 0.046221048 0 0 0 0
915000000 0.032512068 -0.114416264 0.803312448 0.010267914 0 0 0 0
915260000 0.028484756 -0.118054136 0.802359232 -0.030800432 0 0 0 0
915520000 0.027902442 -0.121137552 0.800410496 -0.069193216 0 0 0 0
915780000 0.02466882 -0.125545544 0.797348992 -0.109231648 0 0 0 0
916040000 0.019270036 -0.128644048 0.79219808 -0.148698832 0 0 0 0
916300000 0.015600222 -0.125125032 0.786050112 -0.18724536 0 0 0 0
916560000 0.018574134 -0.123679096 0.774546816 -0.224148208 0 0 0 0
916820000 0.012560692 -0.12699504 0.764065728 -0.263233184 0 0 0 0
917080000 0.010199144 -0.126066056 0.752052672 -0.298762752 0 0 0 0
917340000 0.006613025 -0.118707216 0.734242112 -0.336828192 0 0 0 0
917600000 0.005305736 -0.118553976 0.718322752 -0.375269536 0 0 0 0
917860000 0.008523816 -0.12237916 0.698769024 -0.404491968 0 0 0 0
918120000 0.006553271 -0.12359756 0.672799232 -0.442162464 0 0 0 0
918380000 0.003828687 -0.114276712 0.649865728 -0.472190848 0 0 0 0
918640000 0.005135616 -0.114694312 0.625390336 -0.505115808 0 0 0 0
918900000 0.005943519 -0.116130296 0.595674944 -0.535851584 0 0 0 0
919160000 0.009209246 -0.110454768 0.57355616 -0.561155584 0 0 0 0
919420000 0.008920816 -0.110864824 0.548083776 -0.58885632 0 0 0 0
919680000 0.011351918 -0.109255256 0.516906496 -0.614922944 0 0 0 0
919940000 0.008495344 -0.106013592 0.487415744 -0.637777344 0 0 0 0
920200000 0.017317032 -0.100119864 0.457059424 -0.663925248 0 0 0 0
920460000 0.01757053 -0.106483112 0.42153216 -0.683566656 0 0 0 0
920720000 0.02321417 -0.09712588 0.389061632 -0.703917056 0 0 0 0
920980000 0.023528458 -0.09895308 0.351918176 -0.718211904 0 0 0 0
921240000 0.02620198 -0.09733952 0.317737056 -0.735147328 0 0 0 0
921500000 0.032385652 -0.096286144 0.283395744 -0.754816448 0 0 0 0
921760000 0.041425448 -0.0872686 0.243464112 -0.767425408 0 0 0 0
922020000 0.045993228 -0.088932016 0.20354312 -0.779379584 0 0 0 0
922280000 0.052451488 -0.087893472 0.16562056 -0.789392896 0 0 0 0
922540000 0.05563364 -0.089866912 0.12848276 -0.7921216 0 0 0 0
922800000 0.065492444 -0.0942954 0.085537104 -0.797617728 0 0 0 0
923060000 0.067616712 -0.093494096 0.044297784 -0.799514752 0 0 0 0
923320000 0.07794352 -0.10442648 0.00559336 -0.802284608 0 0 0 0
923580000 0.090117752 -0.106517944 -0.034014316 -0.800877504 0 0 0 0
923840000 0.092990872 -0.110567912 -0.074463424 -0.797779648 0 0 0 0
924100000 0.09781868 -0.109760128 -0.111991096 -0.793006784 0 0 0 0
924360000 0.101147256 -0.11912964 -0.152827264 -0.786599168 0 0 0 0
924620000 0.110256728 -0.130382136 -0.191852784 -0.777127232 0 0 0 0
924880000 0.114615136 -0.130384368 -0.230487584 -0.762877248 0 0 0 0
925140000 0.057355972 -0.140857152 -0.284192096 -0.761784192 0 0 0 0
925400000 0.118541944 -0.150640368 -0.304486912 -0.736175104 0 0 0 0
925660000 0.127465592 -0.160673184 -0.34224048 -0.718979136 0 0 0 0
925920000 0.124611416 -0.169833344 -0.379226976 -0.700028672 0 0 0 0
926180000 0.128970984 -0.176965568 -0.411810336 -0.677107392 0 0 0 0
926440000 0.122072448 -0.185128112 -0.444564736 -0.655859328 0 0 0 0
926700000 0.121096856 -0.190110048 -0.475979296 -0.630120512 0 0 0 0
926960000 0.118210608 -0.19890216 -0.508260384 -0.603960768 0 0 0 0
927220000 0.114725408 -0.200954256 -0.538892736 -0.576012608 0 0 0 0
927480000 0.112803976 -0.207312736 -0.567140352 -0.54541184 0 0 0 0
927740000 0.106910936 -0.216462128 -0.593322112 -0.514438336 0 0 0 0
928000000 0.100469744 -0.21650576 -0.61960864 -0.483536544 0 0 0 0
