# HZ S RI R 50
902000000 0.208630048 -0.70256224 0.168463856 -0.195996912 0 0 0 0
902260000 0.205095552 -0.706207744 0.155369136 -0.20006872 0 0 0 0
902520000 0.198942912 -0.711512192 0.143621744 -0.206576464 0 0 0 0
902780000 0.197959456 -0.714307904 0.131956296 -0.21295136 0 0 0 0
903040000 0.195975584 -0.715889024 0.118712184 -0.220239632 0 0 0 0
903300000 0.203709904 -0.720078784 0.102320528 -0.223987584 0 0 0 0
903560000 0.206011472 -0.721263552 0.086677728 -0.228562176 0 0 0 0
903820000 0.20780096 -0.722920256 0.06783948 -0.229618352 0 0 0 0
904080000 0.214963248 -0.73033312 0.050517172 -0.231949136 0 0 0 0
904340000 0.220608704 -0.735821248 0.032605104 -0.226823264 0 0 0 0
904600000 0.224038544 -0.751444928 0.017005154 -0.222282144 0 0 0 0
904860000 0.226330928 -0.751034624 5.1007e-05 -0.216712816 0 0 0 0
905120000 0.227454112 -0.76742368 -0.01411321 -0.209807472 0 0 0 0
905380000 0.223401824 -0.779963328 -0.027528434 -0.200711072 0 0 0 0
905640000 0.225540192 -0.791449856 -0.037259796 -0.18840352 0 0 0 0
905900000 0.22147048 -0.795948864 -0.046344132 -0.17670584 0 0 0 0
906160000 0.22330584 -0.809354496 -0.054088004 -0.16642552 0 0 0 0
906420000 0.219478 -0.819350272 -0.056768524 -0.157081328 0 0 0 0
906680000 0.214329888 -0.825248192 -0.061535152 -0.146540224 0 0 0 0
906940000 0.199362912 -0.832388096 -0.065846832 -0.139520144 0 0 0 0
907200000 0.201187632 -0.84182848 -0.069709376 -0.131827784 0 0 0 0
907460000 0.202401792 -0.846776256 -0.072002344 -0.124814512 0 0 0 0
907720000 0.19019024 -0.849227072 -0.073580016 -0.116541904 0 0 0 0
907980000 0.188073984 -0.867385536 -0.076738696 -0.11171764 0 0 0 0
908240000 0.1757356 -0.859383232 -0.076085824 -0.104511592 0 0 0 0
908500000 0.179158384 -0.86943904 -0.075824536 -0.098456544 0 0 0 0
908760000 0.175128304 -0.870774528 -0.074905152 -0.09081788 0 0 0 0
909020000 0.15944792 -0.87727776 -0.076114704 -0.087085112 0 0 0 0
909280000 0.156788384 -0.88352416 -0.07473636 -0.08276008 0 0 0 0
909540000 0.151166816 -0.886666816 -0.073687152 -0.079367952 0 0 0 0
909800000 0.129357472 -0.892338048 -0.073446784 -0.076627072 0 0 0 0
910060000 0.121519656 -0.874907584 -0.073634112 -0.075293344 0 0 0 0
910320000 0.131883528 -0.892690944 -0.074029904 -0.076342728 0 0 0 0
910580000 0.121972304 -0.899476928 -0.078372136 -0.076704344 0 0 0 0
910840000 0.114396416 -0.896158336 -0.08178612 -0.077468376 0 0 0 0
911100000 0.103146736 -0.89510944 -0.087722504 -0.077367256 0 0 0 0
911360000 0.101997592 -0.899231232 -0.0930816 -0.074970552 0 0 0 0
911620000 0.090417024 -0.893069248 -0.101549808 -0.070163112 0 0 0 0
911880000 0.09368624 -0.883077312 -0.114781656 -0.06679678 0 0 0 0
912140000 0.094585024 -0.885965376 -0.119962368 -0.056109028 0 0 0 0
912400000 0.079402184 -0.879058112 -0.127320616 -0.045911212 0 0 0 0
912660000 0.078713832 -0.879419264 -0.131421344 -0.031870134 0 0 0 0
912920000 0.07668736 -0.876152896 -0.134726368 -0.01755359 0 0 0 0
913180000 0.083518416 -0.871316224 -0.134711808 -0.003358901 0 0 0 0
913440000 0.084721208 -0.863780288 -0.130094376 0.010938448 0 0 0 0
913700000 0.086328264 -0.860862784 -0.125204056 0.024608738 0 0 0 0
913960000 0.089004528 -0.863079552 -0.117894328 0.038064292 0 0 0 0
914220000 0.094797712 -0.856711616 -0.10654436 0.047910776 0 0 0 0
914480000 0.096381864 -0.8649616 -0.097019512 0.056453508 0 0 0 0
914740000 0.099269992 -0.860733184 -0.085908504 0.062257676 0 0 0 0
915000000 0.102235792 -0.867175936 -0.074619832 0.0664215 0 0 0 0
915260000 0.110861512 -0.869116352 -0.065398372 0.069465616 0 0 0 0
915520000 0.111640704 -0.869295936 -0.052773916 0.071391168 0 0 0 0
915780000 0.112478792 -0.879738944 -0.042982988 0.068970728 0 0 0 0
916040000 0.109952272 -0.885708416 -0.032768368 0.06898004 0 0 0 0
916300000 0.116432656 -0.88718912 -0.02580956 0.06551954 0 0 0 0
916560000 0.104416392 -0.893370176 -0.017986158 0.062534912 0 0 0 0
916820000 0.103142248 -0.901182656 -0.013003672 0.05899936 0 0 0 0
917080000 0.103328224 -0.90550272 -0.005556621 0.054839088 0 0 0 0
917340000 0.109448448 -0.912872896 -0.003026644 0.049773744 0 0 0 0
917600000 0.10244988 -0.90948896 0.001507357 0.046356608 0 0 0 0
917860000 0.099042816 -0.915892928 0.004157087 0.041965704 0 0 0 0
918120000 0.097888448 -0.917884864 0.0073559 0.037677136 0 0 0 0
918380000 0.094386792 -0.92228224 0.00670753 0.033466886 0 0 0 0
918640000 0.095816648 -0.925744 0.010057466 0.029723318 0 0 0 0
918900000 0.089195408 -0.930667264 0.009458298 0.025528086 0 0 0 0
919160000 0.087279104 -0.933412224 0.010645512 0.023987488 0 0 0 0
919420000 0.082258552 -0.936138688 0.010130052 0.021428054 0 0 0 0
919680000 0.078475832 -0.93568288 0.011542116 0.019091288 0 0 0 0
919940000 0.073401856 -0.936541376 0.011706342 0.01586918 0 0 0 0
920200000 0.078008448 -0.938011328 0.01216391 0.014713222 0 0 0 0
920460000 0.074589136 -0.943431936 0.011993976 0.011898972 0 0 0 0
920720000 0.072428904 -0.944122688 0.011906628 0.010063378 0 0 0 0
920980000 0.072995048 -0.946413184 0.013870522 0.007122346 0 0 0 0
921240000 0.065444836 -0.948234432 0.012466392 0.005878386 0 0 0 0
921500000 0.06220178 -0.949366336 0.01132893 0.004142681 0 0 0 0
921760000 0.058025364 -0.948908288 0.01197283 0.000536143 0 0 0 0
922020000 0.056221256 -0.947238464 0.01008366 -0.001404844 0 0 0 0
922280000 0.051433848 -0.9514368 0.006820685 -0.003192454 0 0 0 0
922540000 0.044135216 -0.957171648 0.005102671 -0.003038389 0 0 0 0
922800000 0.042240424 -0.961556544 0.002615554 -0.002776495 0 0 0 0
923060000 0.036832632 -0.959849984 0.002368781 -0.002997154 0 0 0 0
923320000 0.041053876 -0.957441344 0.001089877 -0.001940401 0 0 0 0
923580000 0.0380691 -0.960180928 0.00045759 -0.001640525 0 0 0 0
923840000 0.032516404 -0.961582528 0.000647938 -0.001937543 0 0 0 0
924100000 0.032071662 -0.962868992 0.000921038 -0.002934415 0 0 0 0
924360000 0.026282308 -0.958722112 -9.675e-05 -0.000217584 0 0 0 0
924620000 0.028508976 -0.9612864 0.000464656 -0.001974713 0 0 0 0
924880000 0.027753164 -0.96021568 0.001117889 -0.000893041 0 0 0 0
925140000 0.08599416 -1.00851524 0.000252525 -0.001452629 0 0 0 0
925400000 0.021315076 -0.962018752 -0.000215013 -0.001617765 0 0 0 0
925660000 0.019414998 -0.967604224 0.000146405 -0.002093675 0 0 0 0
925920000 0.011774238 -0.964033664 0.00071016 -0.002135357 0 0 0 0
926180000 0.01652209 -0.964006208 -0.001949009 -0.002856219 0 0 0 0
926440000 0.014950386 -0.966862016 -0.001489024 -0.002295878 0 0 0 0
926700000 0.011544624 -0.966985344 -0.000313947 -0.000748191 0 0 0 0
926960000 0.009306788 -0.966730944 -0.001516418 -0.002412126 0 0 0 0
927220000 3.4649e-05 -0.960571264 -0.000478655 -0.000987303 0 0 0 0
927480000 -0.001282131 -0.968670656 -0.001296372 -0.002877073 0 0 0 0
927740000 -0.001718939 -0.967644224 -0.000952014 -0.002776165 0 0 0 0
928000000 -0.004324572 -0.964673408 -0.002618216 -0.001523404 0 0 0 0
