# HZ S RI R 50
870000000 -0.281453824 -0.8102784 -0.007118137 0.002939836 0 0 0 0
870600000 -0.29938608 -0.76827232 -0.00769683 0.003162572 0 0 0 0
871200000 -0.293974976 -0.757935296 -0.007607696 0.003741208 0 0 0 0
871800000 -0.292616544 -0.743185216 -0.006018499 0.004241129 0 0 0 0
872400000 -0.293010592 -0.72996608 -0.006898533 0.002425272 0 0 0 0
873000000 -0.296838112 -0.707654272 -0.0056985 0.004225767 0 0 0 0
873600000 -0.288407552 -0.690731264 -0.0050111 0.004943852 0 0 0 0
874200000 -0.27786224 -0.668082304 -0.005573508 0.002983064 0 0 0 0
874800000 -0.256836528 -0.650678784 -0.005400661 0.003714448 0 0 0 0
875400000 -0.232163984 -0.647162688 -0.005177663 0.003765566 0 0 0 0
876000000 -0.21940088 -0.644136896 -0.004753369 0.003539175 0 0 0 0
876600000 -0.204245728 -0.654305728 -0.003945969 0.002990458 0 0 0 0
877200000 -0.1995536 -0.651555072 -0.003472544 0.001965788 0 0 0 0
877800000 -0.185611872 -0.658037632 -0.004494136 0.003082537 0 0 0 0
878400000 -0.181529152 -0.652484032 -0.003188313 0.002766546 0 0 0 0
879000000 -0.172837504 -0.66105792 -0.002934444 0.002684295 0 0 0 0
879600000 -0.160807328 -0.668400768 -0.001021088 0.002015145 0 0 0 0
880200000 -0.170443904 -0.693686528 0.000128454 0.004584385 0 0 0 0
880800000 -0.178468096 -0.69556512 0.002743399 0.004485474 0 0 0 0
881400000 -0.193900496 -0.681176832 0.007001092 0.006855618 0 0 0 0
882000000 -0.206985472 -0.677478272 0.017485206 0.009612252 0 0 0 0
882600000 -0.212057392 -0.646356608 0.036061192 0.009483738 0 0 0 0
883200000 -0.195271152 -0.62592864 0.06530626 -0.002383672 0 0 0 0
883800000 -0.155405808 -0.625509696 0.096357928 -0.048223028 0 0 0 0
884400000 -0.138206512 -0.655118336 0.090782304 -0.123441944 0 0 0 0
885000000 -0.15976976 -0.683173376 0.030438908 -0.180628208 0 0 0 0
885600000 -0.196852384 -0.68966816 -0.037140868 -0.20117528 0 0 0 0
886200000 -0.230723488 -0.670336512 -0.097624736 -0.201056464 0 0 0 0
886800000 -0.243388224 -0.640165632 -0.159805568 -0.187989152 0 0 0 0
887400000 -0.251691824 -0.621482368 -0.21522168 -0.166000096 0 0 0 0
888000000 -0.250888768 -0.567954624 -0.281673632 -0.125626488 0 0 0 0
888600000 -0.247096656 -0.537100544 -0.344948224 -0.067361608 0 0 0 0
889200000 -0.225130832 -0.50761728 -0.383846784 0.021564856 0 0 0 0
889800000 -0.205218176 -0.482306048 -0.401958272 0.125333904 0 0 0 0
890400000 -0.170894544 -0.466749088 -0.3774456 0.235406784 0 0 0 0
891000000 -0.146214784 -0.444998528 -0.321359168 0.336805312 0 0 0 0
891600000 -0.123802192 -0.435677632 -0.240054256 0.414610432 0 0 0 0
892200000 -0.096144416 -0.405556192 -0.134684208 0.469944256 0 0 0 0
892800000 -0.0618025 -0.396232928 -0.026137278 0.485022912 0 0 0 0
893400000 -0.014252462 -0.389363968 0.079905552 0.466916576 0 0 0 0
894000000 0.03102401 -0.398397152 0.174469744 0.426649088 0 0 0 0
894600000 0.079652168 -0.415142208 0.238213936 0.363733248 0 0 0 0
895200000 0.113479264 -0.429192512 0.282535264 0.310305152 0 0 0 0
895800000 0.137976032 -0.462555616 0.317060384 0.254942 0 0 0 0
896400000 0.155775584 -0.493767968 0.342699776 0.19865456 0 0 0 0
897000000 0.173122192 -0.51696336 0.358558464 0.14028776 0 0 0 0
897600000 0.188765376 -0.534095392 0.370839968 0.073899984 0 0 0 0
898200000 0.193826448 -0.554652544 0.36801152 0.014958158 0 0 0 0
898800000 0.215440672 -0.573234368 0.354749888 -0.04642202 0 0 0 0
899400000 0.223315952 -0.600049664 0.326309216 -0.102946408 0 0 0 0
900000000 0.23316288 -0.638732224 0.280734912 -0.141667696 0 0 0 0
900600000 0.234845568 -0.668113344 0.23877624 -0.168548064 0 0 0 0
901200000 0.229079024 -0.6876816 0.20488456 -0.18330168 0 0 0 0
901800000 0.208259792 -0.701229504 0.17591128 -0.19140432 0 0 0 0
902400000 0.201276736 -0.710283584 0.14936056 -0.20444264 0 0 0 0
903000000 0.198657312 -0.710960512 0.119418984 -0.219272256 0 0 0 0
903600000 0.20441976 -0.721763904 0.083534096 -0.228729056 0 0 0 0
904200000 0.217577856 -0.737159872 0.040087612 -0.229769552 0 0 0 0
904800000 0.226018 -0.755281408 0.002518289 -0.21664208 0 0 0 0
905400000 0.224018848 -0.782705664 -0.030855298 -0.197048336 0 0 0 0
906000000 0.216960192 -0.803699776 -0.047969188 -0.173045552 0 0 0 0
906600000 0.213555184 -0.823772096 -0.061553836 -0.148324512 0 0 0 0
907200000 0.198612416 -0.83819584 -0.068947752 -0.131803128 0 0 0 0
907800000 0.185659408 -0.861199232 -0.073581632 -0.11567148 0 0 0 0
908400000 0.174652976 -0.860268288 -0.076271776 -0.098944768 0 0 0 0
909000000 0.164515296 -0.877760512 -0.076130584 -0.08680428 0 0 0 0
909600000 0.149109008 -0.890866496 -0.074187536 -0.078883648 0 0 0 0
910200000 0.135656832 -0.888125568 -0.074407304 -0.075903536 0 0 0 0
910800000 0.118387512 -0.892144384 -0.081170136 -0.07683768 0 0 0 0
911400000 0.099252136 -0.89610464 -0.094595912 -0.07591012 0 0 0 0
912000000 0.086332176 -0.884878848 -0.117087616 -0.060217848 0 0 0 0
912600000 0.079847856 -0.873024128 -0.131574064 -0.033252504 0 0 0 0
913200000 0.080826736 -0.863751936 -0.134697408 -0.002063382 0 0 0 0
913800000 0.084434296 -0.85847424 -0.120895032 0.032119316 0 0 0 0
914400000 0.095152296 -0.858602496 -0.0995726 0.053716944 0 0 0 0
915000000 0.104631096 -0.863404416 -0.07443796 0.0671852 0 0 0 0
915600000 0.114824872 -0.874626304 -0.049800936 0.069630424 0 0 0 0
916200000 0.115490392 -0.892475136 -0.02778667 0.067044436 0 0 0 0
916800000 0.104256712 -0.898771584 -0.011490456 0.059079824 0 0 0 0
917400000 0.104710552 -0.911001152 -0.00047617 0.048338232 0 0 0 0
918000000 0.099488064 -0.91844192 0.005401157 0.039332824 0 0 0 0
918600000 0.094765664 -0.932558592 0.008889006 0.02931677 0 0 0 0
919200000 0.086098792 -0.935504448 0.010616482 0.023637516 0 0 0 0
919800000 0.076726952 -0.935506432 0.012856996 0.017997152 0 0 0 0
920400000 0.071032184 -0.943045376 0.01307241 0.013933372 0 0 0 0
921000000 0.066728288 -0.94988672 0.011929262 0.007548032 0 0 0 0
921600000 0.060600684 -0.95870112 0.013311138 0.000613278 0 0 0 0
922200000 0.050504336 -0.954265216 0.007483682 -0.003288281 0 0 0 0
922800000 0.042686328 -0.957737856 0.002435763 -0.003731758 0 0 0 0
923400000 0.036785432 -0.962760192 0.000908577 -0.00288257 0 0 0 0
924000000 0.031577498 -0.961113536 -0.000865022 -0.002408249 0 0 0 0
924600000 0.03042453 -0.96401632 0.000570188 -0.00224379 0 0 0 0
925200000 0.022230122 -0.960680576 -0.000841183 -0.00064537 0 0 0 0
925800000 0.013950636 -0.964233472 -0.000977799 -0.00202812 0 0 0 0
926400000 0.012468838 -0.965238528 -0.001854842 -0.002312272 0 0 0 0
927000000 0.00868991 -0.970645568 -0.00155149 -0.002440782 0 0 0 0
927600000 -0.001199469 -0.9724704 -0.001040255 -0.001954267 0 0 0 0
928200000 0.002912137 -0.9642016 -0.001198628 -0.001213779 0 0 0 0
928800000 -0.008788666 -0.971926912 -0.001619803 -0.002053886 0 0 0 0
929400000 -0.015943056 -0.970898816 -0.001944288 -0.003034285 0 0 0 0
930000000 -0.016323586 -0.967682432 -0.001658451 -0.002752121 0 0 0 0
