# HZ S RI R 50
430000000 1.301466336 -0.169812576 -0.00455899 -0.001791806 0 0 0 0
440700000 1.285435552 -0.2226856 -0.004449636 -0.001612484 0 0 0 0
451400000 1.267896768 -0.273277152 -0.004325999 -0.00156911 0 0 0 0
462100000 1.245751024 -0.318621216 -0.00460685 -0.001393074 0 0 0 0
472800000 1.223753456 -0.365087488 -0.004325696 -0.001969703 0 0 0 0
483500000 1.196384672 -0.407909056 -0.004687686 -0.00171869 0 0 0 0
494200000 1.166640048 -0.452840064 -0.004537271 -0.001917322 0 0 0 0
504900000 1.135591872 -0.494125696 -0.004907286 -0.001526172 0 0 0 0
515600000 1.10175204 -0.533452512 -0.005317811 -0.001701026 0 0 0 0
526300000 1.067490936 -0.566936384 -0.00513181 -0.001807694 0 0 0 0
537000000 1.032961846 -0.600473472 -0.00486676 -0.001371321 0 0 0 0
547700000 0.997095744 -0.630134976 -0.005112203 -0.001500168 0 0 0 0
558400000 0.96534496 -0.661724736 -0.005052672 -0.001424607 0 0 0 0
569100000 0.93295392 -0.687621696 -0.005508004 -0.001642382 0 0 0 0
579800000 0.897721216 -0.717319872 -0.004817167 -0.001036986 0 0 0 0
590500000 0.871395712 -0.737758336 -0.004854283 -0.001394066 0 0 0 0
601200000 0.841163328 -0.758051456 -0.004765915 -0.001049724 0 0 0 0
611900000 0.806262784 -0.7871744 -0.004680625 -0.001640983 0 0 0 0
622600000 0.764495936 -0.812475776 -0.00429794 -0.001414516 0 0 0 0
633300000 0.736568512 -0.83388928 -0.004509695 -0.001494177 0 0 0 0
644000000 0.699402752 -0.855964736 -0.0042802 -0.001752797 0 0 0 0
654700000 0.663535744 -0.880165248 -0.003919259 -0.001866486 0 0 0 0
665400000 0.628885056 -0.89776512 -0.004710399 -0.000923087 0 0 0 0
676100000 0.586994048 -0.918712768 -0.00510005 -0.002502527 0 0 0 0
686800000 0.548983936 -0.933965568 -0.003640817 -0.002067016 0 0 0 0
697500000 0.510578336 -0.949244224 -0.003902722 -0.002575054 0 0 0 0
708200000 0.470590304 -0.962894336 -0.003781421 -0.002190589 0 0 0 0
718900000 0.430798496 -0.976611392 -0.004253511 -0.003052513 0 0 0 0
729600000 0.390707744 -0.984405952 -0.004597317 -0.00287835 0 0 0 0
740300000 0.348156608 -0.992802496 -0.004569161 -0.002616076 0 0 0 0
751000000 0.309312608 -1.000240684 -0.004851417 -0.002371186 0 0 0 0
761700000 0.275003616 -1.001257062 -0.005084791 -0.00344875 0 0 0 0
772400000 0.234289712 -1.005347967 -0.005618366 -0.003067318 0 0 0 0
783100000 0.190930944 -1.00922358 -0.005970464 -0.003185152 0 0 0 0
793800000 0.15470872 -1.017485618 -0.006229154 -0.002484659 0 0 0 0
804500000 0.109907616 -1.020392776 -0.006842311 -0.001676108 0 0 0 0
815200000 0.06009672 -1.019370794 -0.007516889 -0.001413063 0 0 0 0
825900000 0.005100996 -1.01319337 -0.007122158 -0.000383907 0 0 0 0
836600000 -0.056778272 -0.996692032 -0.007381172 -9.1393e-05 0 0 0 0
847300000 -0.11924188 -0.961593792 -0.007554401 0.000764802 0 0 0 0
858000000 -0.176509584 -0.939781568 -0.007652755 0.001791885 0 0 0 0
868700000 -0.271157472 -0.838323328 -0.007008913 0.003750252 0 0 0 0
879400000 -0.168716144 -0.667590464 -0.001660843 0.000744624 0 0 0 0
890100000 -0.181793072 -0.468045024 -0.393092288 0.17976848 0 0 0 0
900800000 0.23359368 -0.674871296 0.228464432 -0.172803952 0 0 0 0
911500000 0.097418728 -0.894422272 -0.099443432 -0.072970952 0 0 0 0
922200000 0.053487904 -0.952376 0.00723834 -0.001852136 0 0 0 0
932900000 -0.036373276 -0.972521408 -0.000818802 -0.001046014 0 0 0 0
943600000 -0.0922192 -0.973876736 -0.003654471 -0.003355404 0 0 0 0
954300000 -0.142385568 -0.958981376 -0.007214641 0.000146468 0 0 0 0
965000000 -0.185909056 -0.93380768 -0.004746334 -0.000442486 0 0 0 0
975700000 -0.19558904 -0.928659328 -0.003639363 0.000216985 0 0 0 0
986400000 -0.220863792 -0.928703104 -0.004884075 0.001325446 0 0 0 0
997100000 -0.25896552 -0.91850912 -0.001688213 0.001020243 0 0 0 0
1007800000 -0.29525984 -0.910075136 -0.003125514 0.001286549 0 0 0 0
1018500000 -0.316744288 -0.909308416 -0.003758788 0.000199702 0 0 0 0
1029200000 -0.357605376 -0.889486464 -0.002645733 0.000965282 0 0 0 0
1039900000 -0.382854976 -0.879696576 -0.00433508 -0.000481883 0 0 0 0
1050600000 -0.4118312 -0.866773184 -0.001446034 0.002641519 0 0 0 0
1061300000 -0.437465056 -0.847872704 0.001716898 -0.000429941 0 0 0 0
1072000000 -0.45953488 -0.835777088 0.001752716 -0.000592223 0 0 0 0
1082700000 -0.474338528 -0.817697024 -0.00148016 6.94e-05 0 0 0 0
1093400000 -0.49637744 -0.81131904 0.002008303 -0.000915609 0 0 0 0
1104100000 -0.517104864 -0.799976192 3.9203e-05 0.000447849 0 0 0 0
1114800000 -0.539750592 -0.775040448 -0.004938368 -0.005087576 0 0 0 0
1125500000 -0.546558528 -0.773396224 0.003717262 0.00453415 0 0 0 0
1136200000 -0.575966528 -0.768330944 0.003189574 -9.1268e-05 0 0 0 0
1146900000 -0.592518656 -0.750989312 0.000455766 -0.000466669 0 0 0 0
1157600000 -0.612158976 -0.749846272 0.003120468 -0.001623196 0 0 0 0
1168300000 -0.640505728 -0.728822336 0.002368792 -0.001072552 0 0 0 0
1179000000 -0.659682624 -0.71914112 0.003656802 0.001506 0 0 0 0
1189700000 -0.680983744 -0.702311488 0.00238842 -0.004555001 0 0 0 0
1200400000 -0.70651776 -0.688556672 0.004054894 -0.003040106 0 0 0 0
1211100000 -0.716487744 -0.686395968 0.002665823 -0.003150287 0 0 0 0
1221800000 -0.743067584 -0.66960576 0.004097381 -0.00331329 0 0 0 0
1232500000 -0.761560832 -0.649896 0.006778361 -0.001645442 0 0 0 0
1243200000 -0.782928192 -0.629232064 0.008081773 -0.005642313 0 0 0 0
1253900000 -0.806727872 -0.628463744 0.007125899 -0.004756547 0 0 0 0
1264600000 -0.828185536 -0.616996928 0.010186642 -0.004546434 0 0 0 0
1275300000 -0.829358592 -0.597366208 0.005985784 -0.003146862 0 0 0 0
1286000000 -0.846384768 -0.5905872 0.009433444 -0.007693462 0 0 0 0
1296700000 -0.880270848 -0.564571968 0.00970736 -0.009159474 0 0 0 0
1307400000 -0.885112704 -0.557076544 0.007791975 -0.011808264 0 0 0 0
1318100000 -0.89496384 -0.539151104 0.006018964 -0.01182548 0 0 0 0
1328800000 -0.914319232 -0.535067328 0.007621139 -0.014124434 0 0 0 0
1339500000 -0.919158912 -0.506054688 0.006126569 -0.014136694 0 0 0 0
1350200000 -0.950121408 -0.50838256 0.004652477 -0.019237538 0 0 0 0
1360900000 -0.954822272 -0.477239872 0.003122338 -0.015057622 0 0 0 0
1371600000 -0.972509248 -0.463152928 0.006213065 -0.019171782 0 0 0 0
1382300000 -0.9840288 -0.456810464 0.001359264 -0.018595996 0 0 0 0
1393000000 -0.989103168 -0.457867296 -0.000243249 -0.022296522 0 0 0 0
1403700000 -1.012849808 -0.454772256 0.002602914 -0.017314324 0 0 0 0
1414400000 -1.012919546 -0.442623072 0.001120518 -0.020349196 0 0 0 0
1425100000 -1.052569984 -0.45189168 0.000851574 -0.02041376 0 0 0 0
1435800000 -1.070414184 -0.414579584 -0.008023999 -0.022440164 0 0 0 0
1446500000 -1.0960896 -0.403188352 -0.005882473 -0.021879772 0 0 0 0
1457200000 -1.086969856 -0.240764656 -0.014818754 -0.010313288 0 0 0 0
1467900000 -1.0695436 -0.231775472 -0.023911492 -0.020694154 0 0 0 0
1478600000 -1.061943888 -0.223816816 -0.025129366 -0.016216334 0 0 0 0
1489300000 -1.112211584 -0.16298448 -0.018962694 -0.01013976 0 0 0 0
1500000000 -1.089947104 -0.18332968 -0.009596498 -0.011417848 0 0 0 0
