# HZ S RI R 50
902000000 0.64633536 0.714520192 -0.000269959 -0.005504621 0 0 0 0
902260000 0.663634688 0.689528448 0.000404907 -0.007252868 0 0 0 0
902520000 0.687354688 0.667534016 2.5835e-05 -0.00846819 0 0 0 0
902780000 0.704751168 0.64477856 7.9795e-05 -0.012807022 0 0 0 0
903040000 0.720250432 0.616065472 -0.000274179 -0.014648806 0 0 0 0
903300000 0.745867456 0.587948096 -0.00011251 -0.01763345 0 0 0 0
903560000 0.756667584 0.553032704 0.00013679 -0.02240401 0 0 0 0
903820000 0.77823552 0.519503904 -0.000946709 -0.027170804 0 0 0 0
904080000 0.794496384 0.478115008 -0.00271574 -0.03210713 0 0 0 0
904340000 0.817689984 0.428890208 -0.005026288 -0.039807332 0 0 0 0
904600000 0.832110912 0.383834944 -0.00856392 -0.048836724 0 0 0 0
904860000 0.84579552 0.323777856 -0.014480268 -0.057319144 0 0 0 0
905120000 0.849738816 0.255341232 -0.023762154 -0.071239096 0 0 0 0
905380000 0.851197952 0.187713552 -0.035249384 -0.086435136 0 0 0 0
905640000 0.841748736 0.102959696 -0.055889588 -0.103457408 0 0 0 0
905900000 0.819903936 0.006119884 -0.08477648 -0.12450004 0 0 0 0
906160000 0.784806272 -0.085547408 -0.128889072 -0.14331568 0 0 0 0
906420000 0.708322176 -0.193650768 -0.194456336 -0.154288864 0 0 0 0
906680000 0.612143936 -0.290493504 -0.289834624 -0.148921552 0 0 0 0
906940000 0.476276672 -0.370927008 -0.411101984 -0.093934056 0 0 0 0
907200000 0.300177536 -0.375778304 -0.521871616 0.03954892 0 0 0 0
907460000 0.137912192 -0.326920064 -0.561781824 0.25679856 0 0 0 0
907720000 0.035885792 -0.219177888 -0.517626272 0.483862944 0 0 0 0
907980000 -0.001463454 -0.114995936 -0.35228032 0.652535296 0 0 0 0
908240000 0.010888982 -0.040239308 -0.153941008 0.769160704 0 0 0 0
908500000 0.01630297 -0.004977479 0.063170732 0.798449856 0 0 0 0
908760000 0.0181638 0.013718388 0.271288096 0.767545856 0 0 0 0
909020000 0.002659248 0.029178958 0.448951616 0.687868608 0 0 0 0
909280000 -0.010000462 0.036821684 0.598526592 0.571809536 0 0 0 0
909540000 -0.029072706 0.063073448 0.716791936 0.421336736 0 0 0 0
909800000 -0.03900304 0.086719568 0.795704576 0.253532656 0 0 0 0
910060000 -0.057511168 0.123586288 0.832669824 0.090665608 0 0 0 0
910320000 -0.04649916 0.143228128 0.82121216 -0.096211792 0 0 0 0
910580000 -0.035117664 0.16125304 0.782878848 -0.263292544 0 0 0 0
910840000 -0.015705354 0.169418256 0.705974016 -0.414308192 0 0 0 0
911100000 -0.001116407 0.151621248 0.61761152 -0.55186368 0 0 0 0
911360000 0.005237348 0.140453376 0.481417312 -0.666027904 0 0 0 0
911620000 -0.003438178 0.117207808 0.32895136 -0.756595008 0 0 0 0
911880000 -0.014692666 0.100627608 0.155387936 -0.807903872 0 0 0 0
912140000 -0.02672444 0.09049032 -0.027415574 -0.815969472 0 0 0 0
912400000 -0.035585332 0.077544192 -0.215658096 -0.784696192 0 0 0 0
912660000 -0.04068244 0.059202024 -0.38931568 -0.694197312 0 0 0 0
912920000 -0.042815136 0.021127988 -0.543375104 -0.564146752 0 0 0 0
913180000 -0.059354456 -0.031670264 -0.658470272 -0.386798784 0 0 0 0
913440000 -0.101883448 -0.100637176 -0.707779328 -0.173368864 0 0 0 0
913700000 -0.189016736 -0.183329888 -0.675202176 0.052832544 0 0 0 0
913960000 -0.334751328 -0.223191088 -0.54737216 0.237806656 0 0 0 0
914220000 -0.492228224 -0.200121232 -0.374020672 0.330264032 0 0 0 0
914480000 -0.627963904 -0.106262592 -0.211453968 0.3293144 0 0 0 0
914740000 -0.714451264 0.007207974 -0.103656072 0.28773504 0 0 0 0
915000000 -0.761471808 0.128844872 -0.039877012 0.238228656 0 0 0 0
915260000 -0.77969568 0.234144192 -0.001747459 0.189211424 0 0 0 0
915520000 -0.780436288 0.328818656 0.01924508 0.146539104 0 0 0 0
915780000 -0.773844928 0.419199392 0.031899414 0.11359364 0 0 0 0
916040000 -0.749386496 0.495352416 0.036405804 0.087726008 0 0 0 0
916300000 -0.72725056 0.55670144 0.035411364 0.065736556 0 0 0 0
916560000 -0.692022016 0.621721344 0.03212858 0.049124116 0 0 0 0
916820000 -0.660588096 0.664069888 0.028916512 0.036995872 0 0 0 0
917080000 -0.630132736 0.699946112 0.024018412 0.026655338 0 0 0 0
917340000 -0.604656128 0.739044672 0.020389656 0.020635118 0 0 0 0
917600000 -0.572516352 0.774894464 0.017831798 0.015329694 0 0 0 0
917860000 -0.536363488 0.798487296 0.01249468 0.00978677 0 0 0 0
918120000 -0.505987936 0.82460576 0.010012686 0.007359237 0 0 0 0
918380000 -0.478530112 0.841025664 0.007378108 0.005882524 0 0 0 0
918640000 -0.4543096 0.856982272 0.00605825 0.004147263 0 0 0 0
918900000 -0.42685664 0.878710976 0.003680751 0.003722964 0 0 0 0
919160000 -0.398667136 0.887919616 0.002432169 0.001703669 0 0 0 0
919420000 -0.378490432 0.902532992 0.000192093 0.001028837 0 0 0 0
919680000 -0.354379648 0.913563904 0.000653113 0.00098185 0 0 0 0
919940000 -0.329878464 0.919279744 -0.000236302 0.0006952 0 0 0 0
920200000 -0.315215392 0.931991936 -0.00134672 0.000491098 0 0 0 0
920460000 -0.292774976 0.933601024 -0.001684045 0.000226026 0 0 0 0
920720000 -0.280485952 0.940929088 -0.002213196 1.8583e-05 0 0 0 0
920980000 -0.255004144 0.949164928 -0.001372511 -2.2831e-05 0 0 0 0
921240000 -0.24252088 0.949633728 -0.002284713 -0.00032552 0 0 0 0
921500000 -0.225606768 0.954817216 -0.003154682 0.000508845 0 0 0 0
921760000 -0.207734368 0.963468672 -0.002444235 -0.000808955 0 0 0 0
922020000 -0.187409648 0.965226816 -0.003388176 0.000448004 0 0 0 0
922280000 -0.1770072 0.973809536 -0.003775232 0.000575314 0 0 0 0
922540000 -0.164460352 0.978816832 -0.002836239 0.000212925 0 0 0 0
922800000 -0.151280352 0.977262912 -0.003007379 -0.000602214 0 0 0 0
923060000 -0.139515808 0.98656896 -0.003204956 -0.000168232 0 0 0 0
923320000 -0.124922584 0.985845184 -0.003642851 0.00058469 0 0 0 0
923580000 -0.117514336 0.979064832 -0.003449496 0.000223268 0 0 0 0
923840000 -0.10110368 0.981704512 -0.003833098 -0.000110899 0 0 0 0
924100000 -0.082028872 0.98674368 -0.003612854 0.000563098 0 0 0 0
924360000 -0.075105408 0.987989248 -0.002982871 0.000488044 0 0 0 0
924620000 -0.065360816 0.98395488 -0.003887595 0.000584876 0 0 0 0
924880000 -0.05636766 0.984509184 -0.003406566 -0.000252671 0 0 0 0
925140000 -0.038411652 0.97187328 -0.002935895 0.00091522 0 0 0 0
925400000 -0.030107794 0.987265152 -0.004115826 0.000713126 0 0 0 0
925660000 -0.019813612 0.99223552 -0.003516739 0.000742954 0 0 0 0
925920000 -0.009902906 0.992859776 -0.003792863 0.000893167 0 0 0 0
926180000 -0.004917693 0.989204736 -0.002677412 0.001028021 0 0 0 0
926440000 0.009537472 0.992607104 -0.003792608 -1.1188e-05 0 0 0 0
926700000 0.014489892 0.9868944 -0.003137033 -0.000400795 0 0 0 0
926960000 0.023888424 0.98638912 -0.004184336 0.000178669 0 0 0 0
927220000 0.027237548 0.989911872 -0.004250953 0.000348093 0 0 0 0
927480000 0.038330636 0.992054656 -0.003371002 0.00123854 0 0 0 0
927740000 0.046773988 0.991514176 -0.002113359 0.001717914 0 0 0 0
928000000 0.054191708 0.991163136 -0.002425689 0.000329408 0 0 0 0
