# HZ S RI R 50
430000000 -1.2928264 0.195074048 -0.004051856 -0.001090215 0 0 0 0
440700000 -1.254907008 0.414658464 -0.004742636 -0.00094881 0 0 0 0
451400000 -1.177156336 0.628167488 -0.004630996 -0.001264967 0 0 0 0
462100000 -1.055428148 0.818085824 -0.004464973 -0.001616258 0 0 0 0
472800000 -0.905019968 0.991912064 -0.004347468 -0.001487193 0 0 0 0
483500000 -0.719981248 1.13547992 -0.004381398 -0.00118349 0 0 0 0
494200000 -0.512865952 1.243541712 -0.004550205 -0.001115952 0 0 0 0
504900000 -0.285677536 1.312694912 -0.004739374 -0.001476181 0 0 0 0
515600000 -0.051488716 1.333620544 -0.004377757 -0.001270246 0 0 0 0
526300000 0.179229936 1.31213248 -0.004898267 -0.001094699 0 0 0 0
537000000 0.40066096 1.24749792 -0.005092366 -0.001076949 0 0 0 0
547700000 0.599989056 1.147026896 -0.005465925 -0.001520509 0 0 0 0
558400000 0.774888448 1.011617542 -0.004836 -0.000993847 0 0 0 0
569100000 0.921077632 0.848731904 -0.005136967 -0.000650674 0 0 0 0
579800000 1.033968212 0.66821984 -0.005249046 -0.000661018 0 0 0 0
590500000 1.102123616 0.476721824 -0.005418623 -0.00040358 0 0 0 0
601200000 1.14507008 0.272506944 -0.005428848 -0.000184808 0 0 0 0
611900000 1.144752144 0.058214956 -0.004497774 -0.000114468 0 0 0 0
622600000 1.10473108 -0.148219664 -0.00478112 -0.000466765 0 0 0 0
633300000 1.046905996 -0.34213376 -0.004662922 -0.000199331 0 0 0 0
644000000 0.943327808 -0.524550976 -0.004557322 0.000330703 0 0 0 0
654700000 0.812867648 -0.690054144 -0.004222101 -4.0714e-05 0 0 0 0
665400000 0.653226624 -0.821341184 -0.004610871 0.000268724 0 0 0 0
676100000 0.465785952 -0.92461984 -0.004206556 0.000505032 0 0 0 0
686800000 0.273826176 -0.978698944 -0.002745254 0.000241512 0 0 0 0
697500000 0.075598648 -1.019050478 -0.003409386 0.000429799 0 0 0 0
708200000 -0.128029568 -1.013527632 -0.003162086 0.000389603 0 0 0 0
718900000 -0.328668384 -0.969472832 -0.00201327 0.000376083 0 0 0 0
729600000 -0.517501184 -0.88878944 -0.002779922 0.000501365 0 0 0 0
740300000 -0.684913216 -0.77648992 -0.002124151 -0.000682286 0 0 0 0
751000000 -0.82950912 -0.631087808 -0.002751653 -0.001211861 0 0 0 0
761700000 -0.938943296 -0.464471008 -0.002102089 -0.001410528 0 0 0 0
772400000 -1.018413066 -0.27936848 -0.003150633 -0.001235239 0 0 0 0
783100000 -1.059990408 -0.084054192 -0.003514503 -0.000990292 0 0 0 0
793800000 -1.060194492 0.11241488 -0.003348764 -0.001050511 0 0 0 0
804500000 -1.025089144 0.301441952 -0.003749254 -0.001252546 0 0 0 0
815200000 -0.95571392 0.480745184 -0.004433167 -0.000454911 0 0 0 0
825900000 -0.85348128 0.637957824 -0.004634495 -0.000209148 0 0 0 0
836600000 -0.723850496 0.772925696 -0.004737765 -0.000333583 0 0 0 0
847300000 -0.565408704 0.884260672 -0.004593805 0.000701341 0 0 0 0
858000000 -0.383960256 0.961727168 -0.004174419 0.000894308 0 0 0 0
868700000 -0.183529376 1.001170754 -0.004383936 0.001232055 0 0 0 0
879400000 0.059001192 0.99682592 -0.001713691 0.000221134 0 0 0 0
890100000 0.369137504 0.909056 -0.001618021 0.001594492 0 0 0 0
900800000 0.8346976 0.440267008 -0.000728551 -0.006311749 0 0 0 0
911500000 -0.008548146 0.088551536 0.4838472 -0.685901888 0 0 0 0
922200000 -0.452399424 0.865759232 -0.001745502 -0.000632448 0 0 0 0
932900000 0.04558444 0.991313216 -0.003202664 0.000727309 0 0 0 0
943600000 0.305527648 0.943056512 -0.003407244 0.000494068 0 0 0 0
954300000 0.486445024 0.845616832 -0.003132559 -0.001180606 0 0 0 0
965000000 0.64104576 0.72967168 -0.002814392 0.001152612 0 0 0 0
975700000 0.754956992 0.593667008 -0.001657453 -0.000738542 0 0 0 0
986400000 0.826905088 0.436086144 -0.001756908 -0.001839108 0 0 0 0
997100000 0.88227616 0.283992352 -0.001499404 -0.001527455 0 0 0 0
1007800000 0.915542144 0.127587008 -0.001536289 -0.000552711 0 0 0 0
1018500000 0.91244096 -0.054679304 -0.001136095 -0.000272304 0 0 0 0
1029200000 0.888175168 -0.220987184 0.000264278 0.001398852 0 0 0 0
1039900000 0.820475904 -0.381826368 -0.001535032 -0.002528952 0 0 0 0
1050600000 0.743774208 -0.534805888 -0.000916414 -0.003099685 0 0 0 0
1061300000 0.622132864 -0.676052416 -0.002104313 -0.00086919 0 0 0 0
1072000000 0.477844352 -0.79029248 -0.000841334 -0.00271321 0 0 0 0
1082700000 0.331583744 -0.868939904 0.001383458 -0.0024216 0 0 0 0
1093400000 0.159528624 -0.933001216 -0.002854484 -0.003096226 0 0 0 0
1104100000 -0.021181996 -0.952447424 -0.003212738 -0.002113257 0 0 0 0
1114800000 -0.197455488 -0.925801856 -0.000986198 -0.00305416 0 0 0 0
1125500000 -0.343478592 -0.877954496 -0.002376471 -0.003788663 0 0 0 0
1136200000 -0.531322464 -0.832556672 -0.022478268 0.006928262 0 0 0 0
1146900000 -0.691809536 -0.714734144 -0.005660308 0.000583925 0 0 0 0
1157600000 -0.807251008 -0.564295808 -0.002099028 -0.001587234 0 0 0 0
1168300000 -0.873727872 -0.398116096 -0.00346754 -0.00098653 0 0 0 0
1179000000 -0.915110208 -0.241919392 -0.002179972 -0.003573838 0 0 0 0
1189700000 -0.928329472 -0.091570848 -0.002656974 -0.001961296 0 0 0 0
1200400000 -0.923387968 0.062562176 -0.006442471 -0.001502379 0 0 0 0
1211100000 -0.891504768 0.22302632 -0.003265868 -0.000349129 0 0 0 0
1221800000 -0.82208416 0.356916 -0.003782732 -0.00178916 0 0 0 0
1232500000 -0.735395072 0.478120768 -0.005720403 0.001261087 0 0 0 0
1243200000 -0.639723712 0.579818432 -0.004012074 0.000314361 0 0 0 0
1253900000 -0.526919008 0.664396672 -0.003741135 0.000174961 0 0 0 0
1264600000 -0.412082464 0.734461312 -0.004875737 -0.000120249 0 0 0 0
1275300000 -0.275314144 0.766319104 -0.007508899 0.005487165 0 0 0 0
1286000000 -0.154386144 0.785943744 -0.000859924 0.001421454 0 0 0 0
1296700000 -0.005098214 0.758920704 -0.003341811 -0.002491298 0 0 0 0
1307400000 0.135287344 0.757381888 0.001851832 -0.002223124 0 0 0 0
1318100000 0.250866896 0.70983392 0.000880057 -0.002697317 0 0 0 0
1328800000 0.371905792 0.623204224 -0.00390951 -0.005707127 0 0 0 0
1339500000 0.480929408 0.540494528 -0.002064785 -0.001800479 0 0 0 0
1350200000 0.592830336 0.44124448 -0.001253745 -0.006812208 0 0 0 0
1360900000 0.6890704 0.302811936 -0.005493962 -0.00868718 0 0 0 0
1371600000 0.756880256 0.164093632 -0.002245675 -0.005403541 0 0 0 0
1382300000 0.800130432 0.000604311 -0.002517957 -0.004499484 0 0 0 0
1393000000 0.830976768 -0.138151632 -0.00360183 -0.003289357 0 0 0 0
1403700000 0.778300224 -0.322293312 -0.005401621 -0.009381876 0 0 0 0
1414400000 0.758179264 -0.474995712 -0.002654356 -0.004009039 0 0 0 0
1425100000 0.718381824 -0.688446144 0.002765339 -0.002374347 0 0 0 0
1435800000 0.625916992 -0.838604544 -0.002934752 -0.008374863 0 0 0 0
1446500000 0.468076864 -0.961062528 -0.003171063 0.00267459 0 0 0 0
1457200000 0.526188064 -1.257061712 0.00367329 -0.001566675 0 0 0 0
1467900000 0.321334336 -1.337733376 -0.00058488 -0.004673474 0 0 0 0
1478600000 0.043225784 -1.39499712 -0.009636302 -0.010063228 0 0 0 0
1489300000 -0.16909312 -1.394373664 -0.009689292 -0.009548782 0 0 0 0
1500000000 -0.315429024 -1.356349824 -0.017697722 0.01098016 0 0 0 0
