# HZ S RI R 50
902000000 0.881417152 0.295586496 -0.003272014 -0.015480674 0 0 0 0
902260000 0.890704768 0.248113536 -0.003246192 -0.017354562 0 0 0 0
902520000 0.894994432 0.213080592 -0.005137591 -0.0209823 0 0 0 0
902780000 0.904169088 0.164046384 -0.005440218 -0.0251087 0 0 0 0
903040000 0.908214912 0.111625952 -0.007977105 -0.028341578 0 0 0 0
903300000 0.909108352 0.063192764 -0.011287936 -0.03391732 0 0 0 0
903560000 0.9065776 0.00792732 -0.016455044 -0.038392508 0 0 0 0
903820000 0.89805376 -0.047228144 -0.020995038 -0.043994872 0 0 0 0
904080000 0.878810304 -0.11436568 -0.02651991 -0.050775112 0 0 0 0
904340000 0.856072128 -0.164044048 -0.0354404 -0.058720136 0 0 0 0
904600000 0.83373696 -0.23717984 -0.047069556 -0.067251328 0 0 0 0
904860000 0.79216672 -0.31363744 -0.063492016 -0.074527968 0 0 0 0
905120000 0.751516928 -0.376943168 -0.0812764 -0.084097232 0 0 0 0
905380000 0.689342144 -0.443534336 -0.106331792 -0.089788616 0 0 0 0
905640000 0.618603776 -0.517363296 -0.139568128 -0.094786528 0 0 0 0
905900000 0.529259456 -0.581435328 -0.181101056 -0.091783192 0 0 0 0
906160000 0.42453728 -0.638179136 -0.234375728 -0.081010624 0 0 0 0
906420000 0.298765952 -0.67293344 -0.29824416 -0.049143396 0 0 0 0
906680000 0.157418928 -0.68275872 -0.365810944 0.006268814 0 0 0 0
906940000 0.018864324 -0.655862656 -0.425516768 0.097086248 0 0 0 0
907200000 -0.124961792 -0.581610176 -0.458495008 0.225490192 0 0 0 0
907460000 -0.234158928 -0.477597472 -0.442971104 0.388462592 0 0 0 0
907720000 -0.30473184 -0.350934304 -0.373796832 0.54550752 0 0 0 0
907980000 -0.321268832 -0.213339888 -0.221176032 0.68306816 0 0 0 0
908240000 -0.301898752 -0.105835376 -0.055897264 0.760388672 0 0 0 0
908500000 -0.249614096 -0.022271804 0.134160728 0.779492352 0 0 0 0
908760000 -0.194208784 0.023412644 0.319987808 0.750051008 0 0 0 0
909020000 -0.153284544 0.039832144 0.4870264 0.6689184 0 0 0 0
909280000 -0.120803064 0.05178428 0.627705664 0.557322176 0 0 0 0
909540000 -0.101162592 0.054747752 0.735807232 0.421419136 0 0 0 0
909800000 -0.08651112 0.04520808 0.812885632 0.265251696 0 0 0 0
910060000 -0.088380488 0.061041624 0.827861056 0.083925096 0 0 0 0
910320000 -0.081959968 0.058639744 0.849990464 -0.06997016 0 0 0 0
910580000 -0.068796976 0.068076536 0.816423808 -0.229001616 0 0 0 0
910840000 -0.064830712 0.082681632 0.759963968 -0.386797472 0 0 0 0
911100000 -0.040355784 0.088569904 0.663146944 -0.526099072 0 0 0 0
911360000 -0.01911102 0.09816388 0.551673984 -0.635784448 0 0 0 0
911620000 0.01176637 0.0848148 0.417281344 -0.723230336 0 0 0 0
911880000 0.03733828 0.065332392 0.262977424 -0.784302016 0 0 0 0
912140000 0.075061472 0.032518242 0.09465924 -0.81900896 0 0 0 0
912400000 0.095807192 -0.013167178 -0.077262696 -0.808936704 0 0 0 0
912660000 0.116647 -0.077678224 -0.238861232 -0.757069952 0 0 0 0
912920000 0.10898984 -0.169669296 -0.39795296 -0.664946496 0 0 0 0
913180000 0.07718208 -0.269774368 -0.521170144 -0.530119904 0 0 0 0
913440000 0.008958638 -0.35427776 -0.605812736 -0.368401632 0 0 0 0
913700000 -0.098102984 -0.434471488 -0.621059392 -0.19302264 0 0 0 0
913960000 -0.233825184 -0.468013984 -0.581894272 -0.032528802 0 0 0 0
914220000 -0.373404256 -0.475183744 -0.504790368 0.094845744 0 0 0 0
914480000 -0.499380192 -0.4357104 -0.402229152 0.172082384 0 0 0 0
914740000 -0.609981888 -0.374779904 -0.307686016 0.213054528 0 0 0 0
915000000 -0.699253312 -0.29357792 -0.22314808 0.221706736 0 0 0 0
915260000 -0.765900736 -0.21154808 -0.151040576 0.211731968 0 0 0 0
915520000 -0.815747648 -0.121234112 -0.098322504 0.191827712 0 0 0 0
915780000 -0.846998976 -0.032507502 -0.057691008 0.16987464 0 0 0 0
916040000 -0.867099968 0.05062058 -0.033410824 0.148182192 0 0 0 0
916300000 -0.872664384 0.122380664 -0.01195851 0.124601336 0 0 0 0
916560000 -0.87059712 0.195102384 -8.5764e-05 0.10552428 0 0 0 0
916820000 -0.868592704 0.260464192 0.009532758 0.087504336 0 0 0 0
917080000 -0.860926976 0.328406944 0.013988384 0.071278136 0 0 0 0
917340000 -0.838978048 0.385609632 0.01613653 0.0584534 0 0 0 0
917600000 -0.821971456 0.437838944 0.01788873 0.045690128 0 0 0 0
917860000 -0.806125696 0.480084096 0.016426142 0.037750612 0 0 0 0
918120000 -0.782993216 0.527757408 0.015433226 0.028486502 0 0 0 0
918380000 -0.761568896 0.567734272 0.013424906 0.0233428 0 0 0 0
918640000 -0.732542848 0.598848576 0.012183022 0.019071738 0 0 0 0
918900000 -0.708693824 0.63302496 0.011314868 0.014868852 0 0 0 0
919160000 -0.691416768 0.66635616 0.008426842 0.012605682 0 0 0 0
919420000 -0.664230976 0.692393984 0.007938339 0.0091611 0 0 0 0
919680000 -0.638247232 0.712940096 0.005962705 0.00674355 0 0 0 0
919940000 -0.619227968 0.728986304 0.005017612 0.005266112 0 0 0 0
920200000 -0.602453952 0.75908864 0.003254114 0.004277065 0 0 0 0
920460000 -0.577174144 0.783932416 0.003091544 0.002083474 0 0 0 0
920720000 -0.55624064 0.793660352 0.001523477 0.002944651 0 0 0 0
920980000 -0.53217472 0.80946496 0.00165483 0.001623455 0 0 0 0
921240000 -0.512186336 0.8186848 -9.2738e-05 0.001693077 0 0 0 0
921500000 -0.491753632 0.832341248 -0.000178491 0.000438631 0 0 0 0
921760000 -0.476416 0.851982208 -0.000785737 0.000823801 0 0 0 0
922020000 -0.461970208 0.856738944 -0.001635204 0.000334979 0 0 0 0
922280000 -0.442304256 0.871185728 -0.00220863 -9.0684e-05 0 0 0 0
922540000 -0.427796032 0.878295872 -0.002133633 0.000458446 0 0 0 0
922800000 -0.406373888 0.898304768 -0.003214754 0.000455832 0 0 0 0
923060000 -0.389247264 0.899324032 -0.002509178 -0.001861958 0 0 0 0
923320000 -0.371009184 0.911728576 -0.002694191 -0.001378166 0 0 0 0
923580000 -0.35996656 0.915465152 -0.00329616 0.000278262 0 0 0 0
923840000 -0.33872896 0.921348928 -0.003425631 0.000275834 0 0 0 0
924100000 -0.326829824 0.922238336 -0.003294537 0.00045788 0 0 0 0
924360000 -0.307029312 0.929690304 -0.003315949 0.000293197 0 0 0 0
924620000 -0.293779808 0.939374912 -0.002930718 -0.000647457 0 0 0 0
924880000 -0.28358352 0.939852032 -0.003254319 -8.4227e-05 0 0 0 0
925140000 -0.255267472 0.91734752 -0.003856113 0.000178587 0 0 0 0
925400000 -0.250648704 0.952862528 -0.003150251 0.000311864 0 0 0 0
925660000 -0.238042496 0.956662784 -0.003978457 -0.00011274 0 0 0 0
925920000 -0.22046568 0.95831616 -0.003251008 0.000476635 0 0 0 0
926180000 -0.21324072 0.963493184 -0.003010871 0.001386478 0 0 0 0
926440000 -0.20025248 0.961974592 -0.004328707 -0.000927456 0 0 0 0
926700000 -0.189725504 0.961558656 -0.004524415 0.000280791 0 0 0 0
926960000 -0.177663856 0.967454464 -0.003754434 -0.001125991 0 0 0 0
927220000 -0.170339184 0.972703168 -0.004524173 -6.3216e-05 0 0 0 0
927480000 -0.153801136 0.978275776 -0.004047866 0.000790495 0 0 0 0
927740000 -0.142926352 0.9732288 -0.004760295 6.8331e-05 0 0 0 0
928000000 -0.134113904 0.98267744 -0.004528525 -0.000313687 0 0 0 0
