# HZ S RI R 50
430000000 -1.293148512 0.147131184 -0.00473615 -0.001318089 0 0 0 0
440700000 -1.263443232 0.366567488 -0.004402568 -0.000952968 0 0 0 0
451400000 -1.193028576 0.580244672 -0.004990172 -0.001067827 0 0 0 0
462100000 -1.082017664 0.778238144 -0.004379376 -0.001198775 0 0 0 0
472800000 -0.93721632 0.953739136 -0.004567262 -0.001003534 0 0 0 0
483500000 -0.759597376 1.104951384 -0.004340485 -0.001218204 0 0 0 0
494200000 -0.558005888 1.220497248 -0.004223767 -0.001370164 0 0 0 0
504900000 -0.335786624 1.2957896 -0.004659502 -0.001470573 0 0 0 0
515600000 -0.103665848 1.328391328 -0.004599568 -0.00176168 0 0 0 0
526300000 0.129592016 1.317612992 -0.004810756 -0.001171791 0 0 0 0
537000000 0.353758208 1.262787584 -0.004921926 -0.001402597 0 0 0 0
547700000 0.555960384 1.168516512 -0.005263553 -0.001438093 0 0 0 0
558400000 0.736710656 1.041803004 -0.005309494 -0.00082699 0 0 0 0
569100000 0.888381824 0.888261056 -0.005101507 -0.000502005 0 0 0 0
579800000 1.009745956 0.7106208 -0.005079094 -0.00061869 0 0 0 0
590500000 1.083728672 0.52043008 -0.005088473 -0.000548889 0 0 0 0
601200000 1.13224888 0.31176512 -0.004774097 -0.000542841 0 0 0 0
611900000 1.148131728 0.110884032 -0.004741729 -0.000248351 0 0 0 0
622600000 1.111840488 -0.102159832 -0.004968106 -0.000130133 0 0 0 0
633300000 1.061677336 -0.295040448 -0.004673853 -0.000443906 0 0 0 0
644000000 0.969770944 -0.477303936 -0.004245061 -7.1064e-05 0 0 0 0
654700000 0.84452288 -0.645553024 -0.004558322 0.000382 0 0 0 0
665400000 0.696631296 -0.789140096 -0.004531336 -5.354e-06 0 0 0 0
676100000 0.515439104 -0.90106432 -0.003625224 0.000288346 0 0 0 0
686800000 0.328965984 -0.964222208 -0.003166715 0.000216589 0 0 0 0
697500000 0.128709224 -1.015794636 -0.003732835 1.0732e-05 0 0 0 0
708200000 -0.075077784 -1.017039896 -0.003146488 -0.000217253 0 0 0 0
718900000 -0.27568864 -0.982789952 -0.002779968 -0.000313909 0 0 0 0
729600000 -0.465857216 -0.912395008 -0.002430343 -0.000542843 0 0 0 0
740300000 -0.638854208 -0.808404416 -0.002912059 -0.000396305 0 0 0 0
751000000 -0.78748192 -0.674832384 -0.002803865 -0.000445459 0 0 0 0
761700000 -0.906735552 -0.516053504 -0.002334662 -0.002014183 0 0 0 0
772400000 -0.994991168 -0.339139072 -0.002860541 -0.000513447 0 0 0 0
783100000 -1.04581964 -0.147269408 -0.003146364 -0.000869623 0 0 0 0
793800000 -1.061206936 0.042007112 -0.003676318 -0.000965893 0 0 0 0
804500000 -1.040137888 0.233243264 -0.004008286 -0.000804605 0 0 0 0
815200000 -0.981699456 0.413352608 -0.003632048 -0.000542972 0 0 0 0
825900000 -0.895267392 0.575352 -0.004316338 -0.000382141 0 0 0 0
836600000 -0.776902528 0.716021184 -0.004506046 -0.000605229 0 0 0 0
847300000 -0.638625024 0.832843008 -0.004409727 0.000421393 0 0 0 0
858000000 -0.475284352 0.919368 -0.004455273 0.000595017 0 0 0 0
868700000 -0.298731328 0.975889472 -0.003337683 0.001556352 0 0 0 0
879400000 -0.097071472 0.996023936 -0.001804772 0.000855933 0 0 0 0
890100000 0.159312416 0.969030208 -0.002441602 0.000546874 0 0 0 0
900800000 0.566422976 0.784728 -0.000817279 -0.001615865 0 0 0 0
911500000 0.006332171 0.132633984 0.396991552 -0.719500416 0 0 0 0
922200000 -0.183123888 0.967983744 -0.003227166 -0.000269903 0 0 0 0
932900000 0.1970524 0.976870592 -0.001770785 0.000544986 0 0 0 0
943600000 0.395948512 0.90827136 -0.002164178 0.000860484 0 0 0 0
954300000 0.568391296 0.810700736 -0.002627883 0.000582744 0 0 0 0
965000000 0.680372672 0.691952192 -0.002420484 -0.000702386 0 0 0 0
975700000 0.780354624 0.55427744 -0.001404012 0.000570665 0 0 0 0
986400000 0.847582272 0.411142976 -0.000968601 -0.001163759 0 0 0 0
997100000 0.889831488 0.255752944 -0.000962479 1.9614e-05 0 0 0 0
1007800000 0.9178048 0.09695956 -0.001179194 -0.000517033 0 0 0 0
1018500000 0.913011456 -0.071861616 -0.001997178 1.139e-05 0 0 0 0
1029200000 0.882285248 -0.243378304 -0.002693626 -0.001521088 0 0 0 0
1039900000 0.827210432 -0.40828752 -0.002016754 -0.00078868 0 0 0 0
1050600000 0.732492928 -0.54892864 -0.002005726 -0.002330562 0 0 0 0
1061300000 0.612273792 -0.684044224 0.00099427 -0.001306513 0 0 0 0
1072000000 0.470165152 -0.801340416 -0.001275631 -0.001491394 0 0 0 0
1082700000 0.308326528 -0.877464128 -0.001545994 -0.005348532 0 0 0 0
1093400000 0.147813504 -0.92684064 -0.000242174 -0.000712153 0 0 0 0
1104100000 -0.031070284 -0.95638144 -0.00102127 -0.003149629 0 0 0 0
1114800000 -0.204446368 -0.9304944 -0.00247694 0.000584122 0 0 0 0
1125500000 -0.380170688 -0.870533952 -0.005435448 -0.002197275 0 0 0 0
1136200000 -0.535738336 -0.823234432 -0.018457986 0.00817349 0 0 0 0
1146900000 -0.701485632 -0.701736512 -0.003733281 -0.002866265 0 0 0 0
1157600000 -0.792756928 -0.54717824 -0.005725798 -0.004421414 0 0 0 0
1168300000 -0.868595008 -0.404013632 -0.003320784 -0.000764203 0 0 0 0
1179000000 -0.915685312 -0.234700912 -0.002489822 -0.002387666 0 0 0 0
1189700000 -0.930720192 -0.078777368 -0.004117759 -0.001346006 0 0 0 0
1200400000 -0.919048 0.074646376 -0.0047224 -0.00190184 0 0 0 0
1211100000 -0.881320768 0.218006768 -0.005289912 0.000609062 0 0 0 0
1221800000 -0.815095872 0.349884704 -0.003850435 0.001553319 0 0 0 0
1232500000 -0.742928832 0.477171968 -0.003590589 -0.003173373 0 0 0 0
1243200000 -0.636074816 0.569180992 -0.004377545 -0.00120788 0 0 0 0
1253900000 -0.52426512 0.648587712 -0.002872982 -0.002284685 0 0 0 0
1264600000 -0.410132224 0.725088576 -0.002698401 0.001145287 0 0 0 0
1275300000 -0.284653184 0.75444544 -0.007233416 0.003683836 0 0 0 0
1286000000 -0.143912432 0.773833536 0.000825376 -0.000622505 0 0 0 0
1296700000 -0.00277799 0.780913664 -0.000640718 -0.001098967 0 0 0 0
1307400000 0.120236408 0.743965824 -0.001618902 -0.001567697 0 0 0 0
1318100000 0.2553604 0.710806016 -0.000174205 -0.005895909 0 0 0 0
1328800000 0.376189536 0.63451808 -0.003536263 -0.005476486 0 0 0 0
1339500000 0.48669536 0.543664768 -0.001220211 -0.008466148 0 0 0 0
1350200000 0.588701696 0.447568416 -0.000618054 -0.007750112 0 0 0 0
1360900000 0.679805248 0.314685024 -0.001987781 -0.005126449 0 0 0 0
1371600000 0.75525664 0.172758016 -0.004215782 -0.004707276 0 0 0 0
1382300000 0.809947392 -0.004101189 -0.001926506 -0.006146309 0 0 0 0
1393000000 0.791747264 -0.163746912 -0.001984288 -0.009829922 0 0 0 0
1403700000 0.806941056 -0.354066528 -0.005604895 -0.005270322 0 0 0 0
1414400000 0.773995008 -0.532850848 0.000267038 -0.008604126 0 0 0 0
1425100000 0.699133888 -0.684553472 -0.002044142 -0.007757889 0 0 0 0
1435800000 0.59494944 -0.832105408 0.004007603 -0.001315956 0 0 0 0
1446500000 0.493028 -0.984890816 0.002272971 -0.009332472 0 0 0 0
1457200000 0.546750912 -1.209251888 -0.009635796 -0.000412126 0 0 0 0
1467900000 0.283802912 -1.35604608 -0.015737296 0.00865695 0 0 0 0
1478600000 0.038586168 -1.373972768 -0.00390362 -0.003903802 0 0 0 0
1489300000 -0.19045152 -1.372223008 -0.00535787 -0.010050964 0 0 0 0
1500000000 -0.342625696 -1.308324928 -0.001759464 -0.009986958 0 0 0 0
