# HZ S RI R 50
895000000 0.300493728 0.923153792 -0.00243952 0.000129828 0 0 0 0
895300000 0.32191248 0.922358976 -0.002803917 0.000853092 0 0 0 0
895600000 0.322582048 0.92441312 -0.001557648 0.000580154 0 0 0 0
895900000 0.33962768 0.917352192 -0.002316971 0.000690018 0 0 0 0
896200000 0.343621504 0.910317696 -0.001689158 0.00022321 0 0 0 0
896500000 0.366876256 0.908484032 -0.001390927 0.000329502 0 0 0 0
896800000 0.368343328 0.904837376 -0.002875364 0.00053183 0 0 0 0
897100000 0.388432352 0.899027712 -0.0025081 0.000278686 0 0 0 0
897400000 0.394965632 0.888877248 -0.00201536 0.000466365 0 0 0 0
897700000 0.408051648 0.889708928 -0.002431627 0.000407591 0 0 0 0
898000000 0.425714496 0.878828608 -0.001623515 -4.5707e-05 0 0 0 0
898300000 0.43592368 0.873256448 -0.00159611 -0.000198316 0 0 0 0
898600000 0.437148608 0.854291584 -0.001283658 0.000838214 0 0 0 0
898900000 0.467535136 0.84937824 -0.00294484 0.000733882 0 0 0 0
899200000 0.47963728 0.845660544 -0.001208842 0.000248276 0 0 0 0
899500000 0.500929664 0.835710912 -0.000871719 -0.000422717 0 0 0 0
899800000 0.517262464 0.821670784 -0.001340729 -0.001408617 0 0 0 0
900100000 0.535277472 0.808433472 -0.000895255 -0.000920016 0 0 0 0
900400000 0.54709728 0.792703168 -0.000993327 -0.000903749 0 0 0 0
900700000 0.571350656 0.784197952 -0.000339831 -0.003119911 0 0 0 0
901000000 0.58843776 0.767838208 -0.000257309 -0.002517847 0 0 0 0
901300000 0.602717632 0.753928512 0.000150302 -0.003457818 0 0 0 0
901600000 0.625018816 0.736201728 -5.0338e-05 -0.004618396 0 0 0 0
901900000 0.659029248 0.701252032 -0.000152366 -0.005001163 0 0 0 0
902200000 0.66433856 0.68431712 0.001284303 -0.007288935 0 0 0 0
902500000 0.693430208 0.660033472 0.000850926 -0.00872358 0 0 0 0
902800000 0.706664896 0.639171392 0.001112947 -0.012400054 0 0 0 0
903100000 0.729877696 0.600489728 0.000781461 -0.016345168 0 0 0 0
903400000 0.754728128 0.561626176 0.0011769 -0.01952593 0 0 0 0
903700000 0.778228032 0.530791872 0.0005606 -0.025081228 0 0 0 0
904000000 0.787934464 0.469067616 -0.00142369 -0.03175136 0 0 0 0
904300000 0.81986016 0.439922144 -0.003388083 -0.038532796 0 0 0 0
904600000 0.838170624 0.37274976 -0.007861611 -0.048426164 0 0 0 0
904900000 0.847020352 0.303520352 -0.01377093 -0.061929024 0 0 0 0
905200000 0.853905344 0.22607704 -0.026343956 -0.077619376 0 0 0 0
905500000 0.859271808 0.13780064 -0.043523132 -0.09685136 0 0 0 0
905800000 0.843137728 0.039248368 -0.070665208 -0.117527808 0 0 0 0
906100000 0.798783616 -0.0778778 -0.114757344 -0.141288736 0 0 0 0
906400000 0.732894912 -0.198350416 -0.188389728 -0.154831648 0 0 0 0
906700000 0.605346176 -0.308177888 -0.296683264 -0.146582192 0 0 0 0
907000000 0.445913312 -0.381261312 -0.43630112 -0.074000912 0 0 0 0
907300000 0.2511664 -0.373338784 -0.548161536 0.104735912 0 0 0 0
907600000 0.09514508 -0.296285792 -0.560772544 0.369978272 0 0 0 0
907900000 0.01855877 -0.175845216 -0.415149728 0.601759616 0 0 0 0
908200000 0.000154763 -0.084141592 -0.194270976 0.74638784 0 0 0 0
908500000 0.002845516 -0.023569848 0.04940486 0.791154112 0 0 0 0
908800000 0.008792732 -0.002207575 0.284917056 0.758735744 0 0 0 0
909100000 -0.019278034 0.0179764 0.486723104 0.657261248 0 0 0 0
909400000 -0.038875692 0.043025192 0.6514416 0.511532672 0 0 0 0
909700000 -0.041751336 0.075937936 0.756740416 0.328170112 0 0 0 0
910000000 -0.054569184 0.107480944 0.81149088 0.249773536 0 0 0 0
910300000 -0.032786238 0.138660544 0.816806464 -0.069256272 0 0 0 0
910600000 -0.018543528 0.14493944 0.777656576 -0.263328192 0 0 0 0
910900000 -0.003220606 0.147234224 0.688943424 -0.437056928 0 0 0 0
911200000 0.005504699 0.125083296 0.572193536 -0.587508224 0 0 0 0
911500000 0.00719596 0.1037922 0.409573152 -0.711684096 0 0 0 0
911800000 -0.004186157 0.07810052 0.220373456 -0.789261632 0 0 0 0
912100000 -0.03254022 0.057744488 0.008038312 -0.811885568 0 0 0 0
912400000 -0.049356304 0.054487612 -0.206342848 -0.781506752 0 0 0 0
912700000 -0.060480328 0.036579008 -0.405398592 -0.679302656 0 0 0 0
913000000 -0.053384092 0.005135207 -0.5751392 -0.51931952 0 0 0 0
913300000 -0.070306216 -0.067398032 -0.682148928 -0.297787264 0 0 0 0
913600000 -0.139235296 -0.16558864 -0.692192704 -0.044761628 0 0 0 0
913900000 -0.27747888 -0.233416832 -0.584772992 0.190236896 0 0 0 0
914200000 -0.468395072 -0.233523616 -0.38610016 0.315801696 0 0 0 0
914500000 -0.635282752 -0.136881904 -0.206538608 0.321616896 0 0 0 0
914800000 -0.734468288 -0.005860878 -0.091738504 0.27337264 0 0 0 0
915100000 -0.784627008 0.130310176 -0.025620728 0.21449 0 0 0 0
915400000 -0.79740128 0.254104464 0.009426214 0.164402576 0 0 0 0
915700000 -0.79397888 0.356349152 0.027608316 0.123411328 0 0 0 0
916000000 -0.775169728 0.453307136 0.034145144 0.088567624 0 0 0 0
916300000 -0.752158272 0.532173984 0.034169856 0.064519196 0 0 0 0
916600000 -0.714325184 0.597395072 0.029055842 0.048179088 0 0 0 0
916900000 -0.677938624 0.652217792 0.027030672 0.032022964 0 0 0 0
917200000 -0.647569344 0.699203968 0.02250473 0.024419978 0 0 0 0
917500000 -0.614927808 0.739857536 0.0191844 0.016621842 0 0 0 0
917800000 -0.569582912 0.774160256 0.013901306 0.011232422 0 0 0 0
918100000 -0.538945344 0.803209472 0.00989303 0.0086623 0 0 0 0
918400000 -0.502633632 0.827304192 0.007701529 0.005266148 0 0 0 0
918700000 -0.469572896 0.85620928 0.00573604 0.003331823 0 0 0 0
919000000 -0.445432512 0.871265792 0.003080867 0.003578575 0 0 0 0
919300000 -0.41122768 0.886985024 0.000861663 0.001463707 0 0 0 0
919600000 -0.384015456 0.897918592 0.001654257 0.001505249 0 0 0 0
919900000 -0.364041504 0.909326656 -3.3838e-05 0.000615038 0 0 0 0
920200000 -0.338953088 0.919630016 -0.00139468 0.001087763 0 0 0 0
920500000 -0.318889792 0.925222464 -0.002273745 0.000637437 0 0 0 0
920800000 -0.296933056 0.935854272 -0.002391379 0.000298398 0 0 0 0
921100000 -0.273313056 0.947570176 -0.002650396 -0.000320431 0 0 0 0
921400000 -0.250321536 0.952202432 -0.002957203 -0.00124971 0 0 0 0
921700000 -0.234751728 0.955559104 -0.002216812 -8.1782e-05 0 0 0 0
922000000 -0.216131136 0.965447872 -0.002869569 -0.000470388 0 0 0 0
922300000 -0.19491792 0.968066112 -0.003364499 0.000242473 0 0 0 0
922600000 -0.177450128 0.97747456 -0.003870812 0.000799346 0 0 0 0
922900000 -0.16522872 0.97968288 -0.002111104 0.000532749 0 0 0 0
923200000 -0.153147504 0.97947968 -0.003453915 0.000631778 0 0 0 0
923500000 -0.134614672 0.974874816 -0.003542005 0.000571611 0 0 0 0
923800000 -0.121172664 0.981089024 -0.002595467 -0.000171875 0 0 0 0
924100000 -0.106473744 0.98086752 -0.003732961 -0.000368736 0 0 0 0
924400000 -0.09535836 0.987804928 -0.002332805 -0.001348183 0 0 0 0
924700000 -0.080756032 0.990128448 -0.002767532 0.000100571 0 0 0 0
925000000 -0.069464688 0.985519232 -0.003009785 -0.00010345 0 0 0 0
