# HZ S RI R 50
890000000 -0.550701056 0.058497612
890600000 -0.544123072 0.067473904
891200000 -0.540026624 0.06552296
891800000 -0.5405232 0.076044024
892400000 -0.531404448 0.073650088
893000000 -0.534579232 0.07537384
893600000 -0.526538656 0.078392488
894200000 -0.529372384 0.080168608
894800000 -0.525892384 0.08553408
895400000 -0.517225312 0.082839176
896000000 -0.5126992 0.086663688
896600000 -0.510262176 0.090482008
897200000 -0.509127072 0.095384976
897800000 -0.500323776 0.097691168
898400000 -0.500114912 0.096191064
899000000 -0.498566112 0.098446968
899600000 -0.492685504 0.103592632
900200000 -0.48240064 0.10321296
900800000 -0.484786496 0.10330468
901400000 -0.480211392 0.101820264
902000000 -0.473692864 0.105432248
902600000 -0.469365184 0.107672288
903200000 -0.46591776 0.111484248
903800000 -0.465555424 0.113932904
904400000 -0.458753568 0.109480072
905000000 -0.45650816 0.11280172
905600000 -0.457970816 0.114824256
906200000 -0.437551424 0.093361768
906800000 -0.449775296 0.1179302
907400000 -0.445852128 0.119144912
908000000 -0.440139424 0.120450296
908600000 -0.441792608 0.117124576
909200000 -0.43829456 0.121070264
909800000 -0.428273568 0.116028352
910400000 -0.430705888 0.118251432
911000000 -0.426695456 0.127000944
911600000 -0.418484928 0.121369184
912200000 -0.41503008 0.12616104
912800000 -0.414762112 0.120522624
913400000 -0.401975168 0.126040144
914000000 -0.407050304 0.127293272
914600000 -0.403146816 0.123939488
915200000 -0.401413248 0.124806536
915800000 -0.395794912 0.125784144
916400000 -0.38887056 0.130045768
917000000 -0.388376864 0.12982276
917600000 -0.386114112 0.126495408
918200000 -0.383259968 0.13125184
918800000 -0.379632256 0.131906792
919400000 -0.373548672 0.131772544
920000000 -0.375137152 0.13163228
920600000 -0.368061824 0.129416136
921200000 -0.362533696 0.132183016
921800000 -0.358761408 0.136719984
922400000 -0.349228384 0.13307212
923000000 -0.356748 0.140326496
923600000 -0.350651488 0.136999984
924200000 -0.3429136 0.134647552
924800000 -0.340592032 0.133811448
925400000 -0.336403392 0.132110264
926000000 -0.332229888 0.136919808
926600000 -0.328109184 0.130442824
927200000 -0.323440224 0.13113524
927800000 -0.320742912 0.129460784
928400000 -0.32219328 0.131058632
929000000 -0.317738368 0.13211548
929600000 -0.31320976 0.132333936
930200000 -0.314833984 0.1285796
930800000 -0.307769536 0.129818008
931400000 -0.307879776 0.122213264
932000000 -0.300202592 0.124426776
932600000 -0.294986112 0.123456984
933200000 -0.291820064 0.123109072
933800000 -0.297166272 0.123919576
934400000 -0.293208864 0.123803808
935000000 -0.284636064 0.120775936
935600000 -0.287536352 0.118855088
936200000 -0.286965856 0.123445152
936800000 -0.280817664 0.117368784
937400000 -0.278809056 0.123859248
938000000 -0.275040288 0.117962856
938600000 -0.274629056 0.124823784
939200000 -0.26774224 0.116826208
939800000 -0.261535712 0.120573232
940400000 -0.263137616 0.119823632
941000000 -0.254605776 0.114627984
941600000 -0.251241888 0.116230104
942200000 -0.249806592 0.115468312
942800000 -0.245868288 0.111450168
943400000 -0.243535504 0.113227624
944000000 -0.24680848 0.111226056
944600000 -0.237908768 0.110492904
945200000 -0.236441984 0.106225136
945800000 -0.236258752 0.108674736
946400000 -0.233414096 0.10854164
947000000 -0.228661536 0.10732532
947600000 -0.222708128 0.10702668
948200000 -0.22375568 0.09797984
948800000 -0.217711504 0.096672288
949400000 -0.217865056 0.097581632
950000000 -0.212283968 0.095103272
