# HZ S RI R 50
890000000 -0.53753248 0.128437536
890600000 -0.532242048 0.128336368
891200000 -0.53080928 0.1378748
891800000 -0.531297152 0.136793136
892400000 -0.522416704 0.141903856
893000000 -0.519049152 0.138728384
893600000 -0.514558368 0.139940352
894200000 -0.508536768 0.14624016
894800000 -0.506434144 0.149624976
895400000 -0.504128928 0.150047696
896000000 -0.507009984 0.149639392
896600000 -0.498882304 0.152812688
897200000 -0.497048672 0.15508984
897800000 -0.489878336 0.154822192
898400000 -0.490237536 0.159964016
899000000 -0.482362272 0.160280288
899600000 -0.47859312 0.157877872
900200000 -0.477136736 0.162871008
900800000 -0.47292608 0.163404352
901400000 -0.46419408 0.169632944
902000000 -0.468836384 0.16645784
902600000 -0.466013856 0.165722128
903200000 -0.461300736 0.169259568
903800000 -0.4565664 0.168196816
904400000 -0.454974624 0.172112752
905000000 -0.444884256 0.1741924
905600000 -0.444910784 0.173100128
906200000 -0.462459296 0.183750656
906800000 -0.434203392 0.17434528
907400000 -0.43233504 0.177284496
908000000 -0.433140832 0.177136736
908600000 -0.422944896 0.179961376
909200000 -0.425476128 0.182476928
909800000 -0.4154936 0.180958752
910400000 -0.414307072 0.176631088
911000000 -0.411804768 0.187871488
911600000 -0.41611408 0.181699152
912200000 -0.410379968 0.177325296
912800000 -0.404355616 0.181110896
913400000 -0.405720608 0.188335376
914000000 -0.400016064 0.18534544
914600000 -0.395655776 0.185781088
915200000 -0.393237472 0.18413464
915800000 -0.386657024 0.189925408
916400000 -0.380227296 0.187242368
917000000 -0.381195136 0.184531696
917600000 -0.380195936 0.192834032
918200000 -0.375891712 0.192126848
918800000 -0.37011984 0.188267424
919400000 -0.367874208 0.187098896
920000000 -0.36404048 0.194610544
920600000 -0.362488896 0.195172288
921200000 -0.351553664 0.189343536
921800000 -0.35000768 0.193320656
922400000 -0.34953712 0.18555016
923000000 -0.345335968 0.195186816
923600000 -0.338928288 0.193812192
924200000 -0.337068512 0.193815248
924800000 -0.33019568 0.19016664
925400000 -0.326901472 0.193115344
926000000 -0.322608992 0.187252992
926600000 -0.325740256 0.189761184
927200000 -0.3181968 0.188149024
927800000 -0.319968032 0.19213824
928400000 -0.31220624 0.186041424
929000000 -0.311411968 0.190353024
929600000 -0.306882688 0.189580448
930200000 -0.307846112 0.185398304
930800000 -0.303092768 0.184800528
931400000 -0.298914048 0.187820688
932000000 -0.297116512 0.18598352
932600000 -0.29598336 0.193284784
933200000 -0.2914632 0.188110288
933800000 -0.285168032 0.185083584
934400000 -0.285280864 0.187851872
935000000 -0.279399008 0.189244624
935600000 -0.27541328 0.1843328
936200000 -0.27341216 0.185873744
936800000 -0.267397248 0.182368688
937400000 -0.26289528 0.185200272
938000000 -0.260668928 0.18055272
938600000 -0.254010944 0.181464432
939200000 -0.252077072 0.185118784
939800000 -0.25477048 0.18328608
940400000 -0.248509616 0.186750416
941000000 -0.247981216 0.174228832
941600000 -0.244543216 0.177570384
942200000 -0.23943224 0.181152768
942800000 -0.239462768 0.177195264
943400000 -0.234554256 0.180141776
944000000 -0.22919304 0.180580832
944600000 -0.230095856 0.18369232
945200000 -0.220933216 0.17782896
945800000 -0.221777376 0.176453584
946400000 -0.215420928 0.173383248
947000000 -0.21055416 0.176344736
947600000 -0.204708256 0.175199248
948200000 -0.206897712 0.176322896
948800000 -0.200428144 0.171556976
949400000 -0.201786272 0.16966952
950000000 -0.19973776 0.16865056
