! Touchstone file generated by AntScope2
# MHz S RI R 50
! Format: Frequency S-real S-imaginary (normalized to 50 Ohm)
890.000000 0.007688 -0.2084
890.300032 0.01408 -0.2124
890.600000 0.004951 -0.2092
890.899968 0.005892 -0.201
891.200000 0.01155 -0.203
891.500032 0.008549 -0.2026
891.800000 0.01485 -0.1971
892.099968 0.009203 -0.1935
892.400000 0.01291 -0.1903
892.700032 0.009409 -0.1932
893.000000 0.01399 -0.1879
893.299968 0.008977 -0.184
893.600000 0.007859 -0.1847
893.900032 0.01318 -0.1757
894.200000 0.0175 -0.1778
894.499968 0.003849 -0.1806
894.800000 0.01509 -0.1719
895.100032 0.01092 -0.173
895.400000 0.01577 -0.1785
895.699968 0.01136 -0.1706
896.000000 0.009694 -0.1676
896.300032 0.01164 -0.1649
896.600000 0.01947 -0.1647
896.899968 0.01268 -0.1611
897.200000 0.01652 -0.163
897.500032 0.02057 -0.1587
897.800000 0.01286 -0.1562
898.099968 0.01629 -0.1588
898.400000 0.01052 -0.1599
898.700032 0.0148 -0.1501
899.000000 0.01723 -0.1489
899.299968 0.01996 -0.1509
899.600000 0.02201 -0.1479
899.900032 0.01621 -0.1373
900.200000 0.0149 -0.1421
900.499968 0.01899 -0.1374
900.800000 0.016 -0.1384
901.100032 0.01892 -0.1331
901.400000 0.01547 -0.1361
901.699968 0.01851 -0.1289
902.000000 0.02024 -0.1258
902.300032 0.01881 -0.1217
902.600000 0.02013 -0.1226
902.899968 0.02236 -0.1207
903.200000 0.02223 -0.1151
903.500032 0.02163 -0.1193
903.800000 0.02368 -0.1146
904.099968 0.02818 -0.1093
904.400000 0.02945 -0.1128
904.700032 0.03251 -0.1069
905.000000 0.02824 -0.1036
905.299968 0.03709 -0.1081
905.600000 0.03924 -0.1074
905.900032 0.04151 -0.1015
906.200000 0.03885 -0.09962
906.499968 0.04428 -0.09704
906.800000 0.04173 -0.1007
907.100032 0.04332 -0.09497
907.400000 0.04761 -0.09249
907.699968 0.04706 -0.09101
908.000000 0.05293 -0.08774
908.300032 0.04368 -0.08723
908.600000 0.05429 -0.08658
908.899968 0.04772 -0.08635
909.200000 0.04583 -0.07943
909.500032 0.05119 -0.08345
909.800000 0.04786 -0.07939
910.099968 0.04485 -0.082
910.400000 0.04926 -0.07475
910.700032 0.05015 -0.0793
911.000000 0.05975 -0.07132
911.299968 0.05229 -0.06902
911.600000 0.05635 -0.06476
911.900032 0.05402 -0.06497
912.200000 0.06198 -0.06396
912.499968 0.06359 -0.06038
912.800000 0.05702 -0.05766
913.100032 0.06171 -0.05722
913.400000 0.07047 -0.05668
913.699968 0.06117 -0.04945
914.000000 0.06654 -0.04428
914.300032 0.06601 -0.04424
914.600000 0.07484 -0.04461
914.899968 0.06738 -0.04175
915.200000 0.07448 -0.04637
915.500032 0.071 -0.04225
915.800000 0.07817 -0.03654
916.099968 0.07309 -0.031
916.400000 0.08291 -0.03342
916.700032 0.07855 -0.03309
917.000000 0.0808 -0.02572
917.299968 0.08267 -0.02759
917.600000 0.08095 -0.02708
917.900032 0.08431 -0.02261
918.200000 0.0851 -0.01871
918.499968 0.08945 -0.02091
918.800000 0.08998 -0.01615
919.100032 0.08899 -0.01291
919.400000 0.09136 -0.01811
919.699968 0.09716 -0.02131
920.000000 0.09723 -0.01023
920.300032 0.09941 -0.01372
920.600000 0.1016 -0.007826
920.899968 0.1043 -0.01282
921.200000 0.1029 -0.01479
921.500032 0.108 -0.008594
921.800000 0.1102 -0.003075
922.099968 0.112 -0.006026
922.400000 0.1073 7.317e-05
922.700032 0.1134 0.002137
923.000000 0.1118 1.715e-05
923.299968 0.1093 0.009253
923.600000 0.1142 0.006793
923.900032 0.121 0.005824
924.200000 0.1198 0.004917
924.499968 0.1236 0.007461
924.800000 0.1214 0.0133
925.100032 0.1246 0.02092
925.400000 0.1332 0.01469
925.699968 0.1367 0.02071
926.000000 0.1364 0.0208
926.300032 0.1345 0.02145
926.600000 0.1381 0.01942
926.899968 0.1422 0.02582
927.200000 0.1352 0.03228
927.500032 0.1439 0.03382
927.800000 0.146 0.03021
928.099968 0.1489 0.03395
928.400000 0.1512 0.03256
928.700032 0.1484 0.03807
929.000000 0.1566 0.04617
929.299968 0.1627 0.04491
929.600000 0.1586 0.04121
929.900032 0.1608 0.05014
930.200000 0.1585 0.04848
930.499968 0.1634 0.05187
930.800000 0.1673 0.04783
931.100032 0.1672 0.05205
931.400000 0.1704 0.05615
931.699968 0.1707 0.05121
932.000000 0.1793 0.05641
932.300032 0.1795 0.05367
932.600000 0.1795 0.05367
932.899968 0.1804 0.05534
933.200000 0.1835 0.05852
933.500032 0.182 0.05904
933.800000 0.1856 0.06051
934.099968 0.1884 0.06033
934.400000 0.1866 0.06615
934.700032 0.1903 0.05654
935.000000 0.1884 0.06643
935.299968 0.1878 0.06263
935.600000 0.1918 0.06799
935.900032 0.1944 0.06385
936.200000 0.2017 0.06303
936.499968 0.2085 0.06752
936.800000 0.2108 0.06649
937.100032 0.2063 0.06373
937.400000 0.211 0.06157
937.699968 0.2207 0.07049
938.000000 0.2176 0.06668
938.300032 0.2145 0.07143
938.600000 0.2209 0.07358
938.899968 0.219 0.07444
939.200000 0.2187 0.07954
939.500032 0.2207 0.07734
939.800000 0.2198 0.07793
940.099968 0.2326 0.08103
940.400000 0.2362 0.07884
940.700032 0.2316 0.08424
941.000000 0.2416 0.07999
941.299968 0.2407 0.08505
941.600000 0.2358 0.08516
941.900032 0.2409 0.09678
942.200000 0.2472 0.08848
942.499968 0.2481 0.09362
942.800000 0.2428 0.09862
943.100032 0.2473 0.09299
943.400000 0.2497 0.09313
943.699968 0.2529 0.09328
944.000000 0.2562 0.09487
944.300032 0.2486 0.1006
944.600000 0.2619 0.1011
944.899968 0.252 0.1056
945.200000 0.2692 0.1003
945.500032 0.2701 0.1029
945.800000 0.2766 0.09537
946.099968 0.2866 0.1035
946.400000 0.2711 0.1046
946.700032 0.2805 0.1058
947.000000 0.2862 0.105
947.299968 0.2942 0.1049
947.600000 0.2909 0.1065
947.900032 0.2896 0.1139
948.200000 0.2893 0.105
948.499968 0.3023 0.105
948.800000 0.3051 0.1106
949.100032 0.3023 0.1057
949.400000 0.3116 0.1071
949.699968 0.3063 0.1101
950.000000 0.3099 0.11
